# vsim -vopt work.top -voptargs="+acc=npr" -assertdebug -l simulation.log -coverage -c -do "coverage save -onexit -assert -directive -cvg -codeAll coverage.ucdb; run -all; exit" 
# Start time: 00:19:37 on Sep 26,2025
# ** Note: (vsim-3812) Design is being optimized...
# ** Note: (vopt-143) Recognized 1 FSM in module "master_bridge(fast)".
# ** Warning: apb_sequence.sv(74): (vopt-2239) Treating stand-alone use of presumed external function as an implicit VOID cast.
# ** Warning: apb_sequence.sv(81): (vopt-2239) Treating stand-alone use of presumed external function as an implicit VOID cast.
# ** Warning: apb_sequence.sv(88): (vopt-2239) Treating stand-alone use of presumed external function as an implicit VOID cast.
# ** Warning: apb_sequence.sv(165): (vopt-2239) Treating stand-alone use of presumed external function as an implicit VOID cast.
# //  Questa Sim
# //  Version 10.6c linux Jul 25 2017
# //
# //  Copyright 1991-2017 Mentor Graphics Corporation
# //  All Rights Reserved.
# //
# //  QuestaSim and its associated documentation contain trade
# //  secrets and commercial or financial information that are the property of
# //  Mentor Graphics Corporation and are privileged, confidential,
# //  and exempt from disclosure under the Freedom of Information Act,
# //  5 U.S.C. Section 552. Furthermore, this information
# //  is prohibited from disclosure under the Trade Secrets Act,
# //  18 U.S.C. Section 1905.
# //
# Loading sv_std.std
# Loading work.apb_intf(fast)
# Loading mtiUvm.uvm_pkg
# Loading work.apb_pkg(fast)
# Loading work.top(fast)
# Loading work.apb_intf(fast)
# Loading work.APB_Protocol(fast)
# Loading work.master_bridge(fast)
# Loading work.slave1(fast)
# Loading work.slave2(fast)
# Loading mtiUvm.questa_uvm_pkg(fast)
# Loading /tools/mentor/questasim_10.6c/questasim/uvm-1.1d/linux/uvm_dpi.so
# coverage save -onexit -assert -directive -cvg -codeAll coverage.ucdb
#  run -all
# ----------------------------------------------------------------
# UVM-1.1d
# (C) 2007-2013 Mentor Graphics Corporation
# (C) 2007-2013 Cadence Design Systems, Inc.
# (C) 2006-2013 Synopsys, Inc.
# (C) 2011-2013 Cypress Semiconductor Corp.
# ----------------------------------------------------------------
# 
#   ***********       IMPORTANT RELEASE NOTES         ************
# 
#   You are using a version of the UVM library that has been compiled
#   with `UVM_NO_DEPRECATED undefined.
#   See http://www.eda.org/svdb/view.php?id=3313 for more details.
# 
#   You are using a version of the UVM library that has been compiled
#   with `UVM_OBJECT_MUST_HAVE_CONSTRUCTOR undefined.
#   See http://www.eda.org/svdb/view.php?id=3770 for more details.
# 
#       (Specify +UVM_NO_RELNOTES to turn off this notice)
# 
# UVM_INFO verilog_src/questa_uvm_pkg-1.2/src/questa_uvm_pkg.sv(215) @ 0: reporter [Questa UVM] QUESTA_UVM-1.2.3
# UVM_INFO verilog_src/questa_uvm_pkg-1.2/src/questa_uvm_pkg.sv(217) @ 0: reporter [Questa UVM]  questa_uvm::init(+struct)
# UVM_INFO @ 0: reporter [RNTST] Running test regression_test...
# UVM_INFO apb_driver.sv(25) @ 0: uvm_test_top.env.act_agt.drv [apb_driver] | SEQUENCE DRIVEN | READ_WRITE = 0 | apb_write_paddr = x | apb_write_data = 72 | 
# ** Error: INVALID INPUTS
#    Time: 5 ns Started: 5 ns  Scope: top.intf File: apb_interface.sv Line: 50 Expr: not($isunknown({READ_WRITE,apb_write_paddr,apb_read_paddr,apb_write_data}))
# ** Info: PCLK is toggling
#    Time: 5 ns Started: 5 ns  Scope: top.intf File: apb_interface.sv Line: 36
# UVM_INFO apb_monitor.sv(73) @ 15: uvm_test_top.env.pass_agt.pass_mon [apb_passive_monitor] | SEQUENCE MONITORED | READ_WRITE = x | apb_read_paddr = x | PSLVERR = 1 | 
# outputs received here @ 15
# inputs received here @ 15
# UVM_INFO apb_monitor.sv(31) @ 15: uvm_test_top.env.act_agt.act_mon [apb_active_monitor] | SEQUENCE MONITORED | READ_WRITE = 0 | apb_write_paddr = x | apb_write_data = 72 | 
# DATA = 72, WRITTEN IN MEMORY ADDRESS = x 
# TOTAL TRANSACTIONS : 1 | MATCHES = 0 | MISMATCHES = 0 |
# --------------------------------- SCOREBOARD ------------------------------------------
# 
# ** Error: INVALID INPUTS
#    Time: 15 ns Started: 15 ns  Scope: top.intf File: apb_interface.sv Line: 50 Expr: not($isunknown({READ_WRITE,apb_write_paddr,apb_read_paddr,apb_write_data}))
# ** Info: PCLK is toggling
#    Time: 15 ns Started: 15 ns  Scope: top.intf File: apb_interface.sv Line: 36
# UVM_INFO apb_driver.sv(25) @ 25: uvm_test_top.env.act_agt.drv [apb_driver] | SEQUENCE DRIVEN | READ_WRITE = 0 | apb_write_paddr = x | apb_write_data = 147 | 
# ** Error: INVALID INPUTS
#    Time: 25 ns Started: 25 ns  Scope: top.intf File: apb_interface.sv Line: 50 Expr: not($isunknown({READ_WRITE,apb_write_paddr,apb_read_paddr,apb_write_data}))
# ** Info: PCLK is toggling
#    Time: 25 ns Started: 25 ns  Scope: top.intf File: apb_interface.sv Line: 36
# ** Error: INVALID INPUTS
#    Time: 35 ns Started: 35 ns  Scope: top.intf File: apb_interface.sv Line: 50 Expr: not($isunknown({READ_WRITE,apb_write_paddr,apb_read_paddr,apb_write_data}))
# ** Info: PCLK is toggling
#    Time: 35 ns Started: 35 ns  Scope: top.intf File: apb_interface.sv Line: 36
# inputs received here @ 45
# UVM_INFO apb_monitor.sv(31) @ 45: uvm_test_top.env.act_agt.act_mon [apb_active_monitor] | SEQUENCE MONITORED | READ_WRITE = 0 | apb_write_paddr = x | apb_write_data = 147 | 
# UVM_INFO apb_monitor.sv(73) @ 45: uvm_test_top.env.pass_agt.pass_mon [apb_passive_monitor] | SEQUENCE MONITORED | READ_WRITE = x | apb_read_paddr = x | PSLVERR = 1 | 
# outputs received here @ 45
# DATA = 147, WRITTEN IN MEMORY ADDRESS = x 
# TOTAL TRANSACTIONS : 2 | MATCHES = 0 | MISMATCHES = 0 |
# --------------------------------- SCOREBOARD ------------------------------------------
# 
# ** Error: INVALID INPUTS
#    Time: 45 ns Started: 45 ns  Scope: top.intf File: apb_interface.sv Line: 50 Expr: not($isunknown({READ_WRITE,apb_write_paddr,apb_read_paddr,apb_write_data}))
# ** Info: PCLK is toggling
#    Time: 45 ns Started: 45 ns  Scope: top.intf File: apb_interface.sv Line: 36
# UVM_INFO apb_driver.sv(25) @ 55: uvm_test_top.env.act_agt.drv [apb_driver] | SEQUENCE DRIVEN | READ_WRITE = 0 | apb_write_paddr = x | apb_write_data = 41 | 
# ** Error: INVALID INPUTS
#    Time: 55 ns Started: 55 ns  Scope: top.intf File: apb_interface.sv Line: 50 Expr: not($isunknown({READ_WRITE,apb_write_paddr,apb_read_paddr,apb_write_data}))
# ** Info: PCLK is toggling
#    Time: 55 ns Started: 55 ns  Scope: top.intf File: apb_interface.sv Line: 36
# ** Error: INVALID INPUTS
#    Time: 65 ns Started: 65 ns  Scope: top.intf File: apb_interface.sv Line: 50 Expr: not($isunknown({READ_WRITE,apb_write_paddr,apb_read_paddr,apb_write_data}))
# ** Info: PCLK is toggling
#    Time: 65 ns Started: 65 ns  Scope: top.intf File: apb_interface.sv Line: 36
# UVM_INFO apb_monitor.sv(73) @ 75: uvm_test_top.env.pass_agt.pass_mon [apb_passive_monitor] | SEQUENCE MONITORED | READ_WRITE = x | apb_read_paddr = x | PSLVERR = 1 | 
# outputs received here @ 75
# inputs received here @ 75
# UVM_INFO apb_monitor.sv(31) @ 75: uvm_test_top.env.act_agt.act_mon [apb_active_monitor] | SEQUENCE MONITORED | READ_WRITE = 0 | apb_write_paddr = x | apb_write_data = 41 | 
# DATA = 41, WRITTEN IN MEMORY ADDRESS = x 
# TOTAL TRANSACTIONS : 3 | MATCHES = 0 | MISMATCHES = 0 |
# --------------------------------- SCOREBOARD ------------------------------------------
# 
# ** Error: INVALID INPUTS
#    Time: 75 ns Started: 75 ns  Scope: top.intf File: apb_interface.sv Line: 50 Expr: not($isunknown({READ_WRITE,apb_write_paddr,apb_read_paddr,apb_write_data}))
# ** Info: PCLK is toggling
#    Time: 75 ns Started: 75 ns  Scope: top.intf File: apb_interface.sv Line: 36
# UVM_INFO apb_driver.sv(25) @ 85: uvm_test_top.env.act_agt.drv [apb_driver] | SEQUENCE DRIVEN | READ_WRITE = 0 | apb_write_paddr = 328 | apb_write_data = x | 
# ** Error: INVALID INPUTS
#    Time: 85 ns Started: 85 ns  Scope: top.intf File: apb_interface.sv Line: 50 Expr: not($isunknown({READ_WRITE,apb_write_paddr,apb_read_paddr,apb_write_data}))
# ** Info: PCLK is toggling
#    Time: 85 ns Started: 85 ns  Scope: top.intf File: apb_interface.sv Line: 36
# ** Error: INVALID INPUTS
#    Time: 95 ns Started: 95 ns  Scope: top.intf File: apb_interface.sv Line: 50 Expr: not($isunknown({READ_WRITE,apb_write_paddr,apb_read_paddr,apb_write_data}))
# ** Info: PCLK is toggling
#    Time: 95 ns Started: 95 ns  Scope: top.intf File: apb_interface.sv Line: 36
# inputs received here @ 105
# UVM_INFO apb_monitor.sv(31) @ 105: uvm_test_top.env.act_agt.act_mon [apb_active_monitor] | SEQUENCE MONITORED | READ_WRITE = 0 | apb_write_paddr = 328 | apb_write_data = x | 
# UVM_INFO apb_monitor.sv(73) @ 105: uvm_test_top.env.pass_agt.pass_mon [apb_passive_monitor] | SEQUENCE MONITORED | READ_WRITE = x | apb_read_paddr = x | PSLVERR = 1 | 
# outputs received here @ 105
# DATA = x, WRITTEN IN MEMORY ADDRESS = 328 
# TOTAL TRANSACTIONS : 4 | MATCHES = 0 | MISMATCHES = 0 |
# --------------------------------- SCOREBOARD ------------------------------------------
# 
# ** Error: INVALID INPUTS
#    Time: 105 ns Started: 105 ns  Scope: top.intf File: apb_interface.sv Line: 50 Expr: not($isunknown({READ_WRITE,apb_write_paddr,apb_read_paddr,apb_write_data}))
# ** Info: PCLK is toggling
#    Time: 105 ns Started: 105 ns  Scope: top.intf File: apb_interface.sv Line: 36
# UVM_INFO apb_driver.sv(25) @ 115: uvm_test_top.env.act_agt.drv [apb_driver] | SEQUENCE DRIVEN | READ_WRITE = 0 | apb_write_paddr = 198 | apb_write_data = x | 
# ** Error: INVALID INPUTS
#    Time: 115 ns Started: 115 ns  Scope: top.intf File: apb_interface.sv Line: 50 Expr: not($isunknown({READ_WRITE,apb_write_paddr,apb_read_paddr,apb_write_data}))
# ** Info: PCLK is toggling
#    Time: 115 ns Started: 115 ns  Scope: top.intf File: apb_interface.sv Line: 36
# ** Error: INVALID INPUTS
#    Time: 125 ns Started: 125 ns  Scope: top.intf File: apb_interface.sv Line: 50 Expr: not($isunknown({READ_WRITE,apb_write_paddr,apb_read_paddr,apb_write_data}))
# ** Info: PCLK is toggling
#    Time: 125 ns Started: 125 ns  Scope: top.intf File: apb_interface.sv Line: 36
# UVM_INFO apb_monitor.sv(73) @ 135: uvm_test_top.env.pass_agt.pass_mon [apb_passive_monitor] | SEQUENCE MONITORED | READ_WRITE = x | apb_read_paddr = x | PSLVERR = 1 | 
# outputs received here @ 135
# inputs received here @ 135
# UVM_INFO apb_monitor.sv(31) @ 135: uvm_test_top.env.act_agt.act_mon [apb_active_monitor] | SEQUENCE MONITORED | READ_WRITE = 0 | apb_write_paddr = 198 | apb_write_data = x | 
# DATA = x, WRITTEN IN MEMORY ADDRESS = 198 
# TOTAL TRANSACTIONS : 5 | MATCHES = 0 | MISMATCHES = 0 |
# --------------------------------- SCOREBOARD ------------------------------------------
# 
# ** Error: INVALID INPUTS
#    Time: 135 ns Started: 135 ns  Scope: top.intf File: apb_interface.sv Line: 50 Expr: not($isunknown({READ_WRITE,apb_write_paddr,apb_read_paddr,apb_write_data}))
# ** Info: PCLK is toggling
#    Time: 135 ns Started: 135 ns  Scope: top.intf File: apb_interface.sv Line: 36
# UVM_INFO apb_driver.sv(25) @ 145: uvm_test_top.env.act_agt.drv [apb_driver] | SEQUENCE DRIVEN | READ_WRITE = 0 | apb_write_paddr = 93 | apb_write_data = x | 
# ** Error: INVALID INPUTS
#    Time: 145 ns Started: 145 ns  Scope: top.intf File: apb_interface.sv Line: 50 Expr: not($isunknown({READ_WRITE,apb_write_paddr,apb_read_paddr,apb_write_data}))
# ** Info: PCLK is toggling
#    Time: 145 ns Started: 145 ns  Scope: top.intf File: apb_interface.sv Line: 36
# ** Error: INVALID INPUTS
#    Time: 155 ns Started: 155 ns  Scope: top.intf File: apb_interface.sv Line: 50 Expr: not($isunknown({READ_WRITE,apb_write_paddr,apb_read_paddr,apb_write_data}))
# ** Info: PCLK is toggling
#    Time: 155 ns Started: 155 ns  Scope: top.intf File: apb_interface.sv Line: 36
# inputs received here @ 165
# UVM_INFO apb_monitor.sv(31) @ 165: uvm_test_top.env.act_agt.act_mon [apb_active_monitor] | SEQUENCE MONITORED | READ_WRITE = 0 | apb_write_paddr = 93 | apb_write_data = x | 
# UVM_INFO apb_monitor.sv(73) @ 165: uvm_test_top.env.pass_agt.pass_mon [apb_passive_monitor] | SEQUENCE MONITORED | READ_WRITE = x | apb_read_paddr = x | PSLVERR = 1 | 
# outputs received here @ 165
# DATA = x, WRITTEN IN MEMORY ADDRESS = 93 
# TOTAL TRANSACTIONS : 6 | MATCHES = 0 | MISMATCHES = 0 |
# --------------------------------- SCOREBOARD ------------------------------------------
# 
# ** Error: INVALID INPUTS
#    Time: 165 ns Started: 165 ns  Scope: top.intf File: apb_interface.sv Line: 50 Expr: not($isunknown({READ_WRITE,apb_write_paddr,apb_read_paddr,apb_write_data}))
# ** Info: PCLK is toggling
#    Time: 165 ns Started: 165 ns  Scope: top.intf File: apb_interface.sv Line: 36
# UVM_INFO apb_driver.sv(31) @ 175: uvm_test_top.env.act_agt.drv [apb_driver] | SEQUENCE DRIVEN | READ_WRITE = 1 | apb_read_paddr = x |
# ** Error: INVALID INPUTS
#    Time: 175 ns Started: 175 ns  Scope: top.intf File: apb_interface.sv Line: 50 Expr: not($isunknown({READ_WRITE,apb_write_paddr,apb_read_paddr,apb_write_data}))
# ** Info: PCLK is toggling
#    Time: 175 ns Started: 175 ns  Scope: top.intf File: apb_interface.sv Line: 36
# ** Error: INVALID INPUTS
#    Time: 185 ns Started: 185 ns  Scope: top.intf File: apb_interface.sv Line: 50 Expr: not($isunknown({READ_WRITE,apb_write_paddr,apb_read_paddr,apb_write_data}))
# ** Info: PCLK is toggling
#    Time: 185 ns Started: 185 ns  Scope: top.intf File: apb_interface.sv Line: 36
# UVM_INFO apb_monitor.sv(73) @ 195: uvm_test_top.env.pass_agt.pass_mon [apb_passive_monitor] | SEQUENCE MONITORED | READ_WRITE = x | apb_read_paddr = x | PSLVERR = 1 | 
# outputs received here @ 195
# inputs received here @ 195
# UVM_INFO apb_monitor.sv(31) @ 195: uvm_test_top.env.act_agt.act_mon [apb_active_monitor] | SEQUENCE MONITORED | READ_WRITE = 1 | apb_write_paddr = 93 | apb_write_data = x | 
# UVM_INFO apb_scoreboard.sv(80) @ 195: uvm_test_top.env.scb [apb_scoreboard]  ERROR_DETECTED | READ_DATA = x | DATA READ FROM = x | PSLVERR = 1 
# TOTAL TRANSACTIONS : 6 | MATCHES = 0 | MISMATCHES = 0 |
# --------------------------------- SCOREBOARD ------------------------------------------
# 
# ** Error: INVALID INPUTS
#    Time: 195 ns Started: 195 ns  Scope: top.intf File: apb_interface.sv Line: 50 Expr: not($isunknown({READ_WRITE,apb_write_paddr,apb_read_paddr,apb_write_data}))
# ** Info: PCLK is toggling
#    Time: 195 ns Started: 195 ns  Scope: top.intf File: apb_interface.sv Line: 36
# UVM_INFO apb_driver.sv(31) @ 205: uvm_test_top.env.act_agt.drv [apb_driver] | SEQUENCE DRIVEN | READ_WRITE = 1 | apb_read_paddr = x |
# ** Error: INVALID INPUTS
#    Time: 205 ns Started: 205 ns  Scope: top.intf File: apb_interface.sv Line: 50 Expr: not($isunknown({READ_WRITE,apb_write_paddr,apb_read_paddr,apb_write_data}))
# ** Info: PCLK is toggling
#    Time: 205 ns Started: 205 ns  Scope: top.intf File: apb_interface.sv Line: 36
# ** Error: INVALID INPUTS
#    Time: 215 ns Started: 215 ns  Scope: top.intf File: apb_interface.sv Line: 50 Expr: not($isunknown({READ_WRITE,apb_write_paddr,apb_read_paddr,apb_write_data}))
# ** Info: PCLK is toggling
#    Time: 215 ns Started: 215 ns  Scope: top.intf File: apb_interface.sv Line: 36
# inputs received here @ 225
# UVM_INFO apb_monitor.sv(31) @ 225: uvm_test_top.env.act_agt.act_mon [apb_active_monitor] | SEQUENCE MONITORED | READ_WRITE = 1 | apb_write_paddr = 93 | apb_write_data = x | 
# UVM_INFO apb_monitor.sv(73) @ 225: uvm_test_top.env.pass_agt.pass_mon [apb_passive_monitor] | SEQUENCE MONITORED | READ_WRITE = x | apb_read_paddr = x | PSLVERR = 1 | 
# outputs received here @ 225
# UVM_INFO apb_scoreboard.sv(80) @ 225: uvm_test_top.env.scb [apb_scoreboard]  ERROR_DETECTED | READ_DATA = x | DATA READ FROM = x | PSLVERR = 1 
# TOTAL TRANSACTIONS : 6 | MATCHES = 0 | MISMATCHES = 0 |
# --------------------------------- SCOREBOARD ------------------------------------------
# 
# ** Error: INVALID INPUTS
#    Time: 225 ns Started: 225 ns  Scope: top.intf File: apb_interface.sv Line: 50 Expr: not($isunknown({READ_WRITE,apb_write_paddr,apb_read_paddr,apb_write_data}))
# ** Info: PCLK is toggling
#    Time: 225 ns Started: 225 ns  Scope: top.intf File: apb_interface.sv Line: 36
# UVM_INFO apb_driver.sv(31) @ 235: uvm_test_top.env.act_agt.drv [apb_driver] | SEQUENCE DRIVEN | READ_WRITE = 1 | apb_read_paddr = x |
# ** Error: INVALID INPUTS
#    Time: 235 ns Started: 235 ns  Scope: top.intf File: apb_interface.sv Line: 50 Expr: not($isunknown({READ_WRITE,apb_write_paddr,apb_read_paddr,apb_write_data}))
# ** Info: PCLK is toggling
#    Time: 235 ns Started: 235 ns  Scope: top.intf File: apb_interface.sv Line: 36
# ** Error: INVALID INPUTS
#    Time: 245 ns Started: 245 ns  Scope: top.intf File: apb_interface.sv Line: 50 Expr: not($isunknown({READ_WRITE,apb_write_paddr,apb_read_paddr,apb_write_data}))
# ** Info: PCLK is toggling
#    Time: 245 ns Started: 245 ns  Scope: top.intf File: apb_interface.sv Line: 36
# UVM_INFO apb_monitor.sv(73) @ 255: uvm_test_top.env.pass_agt.pass_mon [apb_passive_monitor] | SEQUENCE MONITORED | READ_WRITE = x | apb_read_paddr = x | PSLVERR = 1 | 
# outputs received here @ 255
# inputs received here @ 255
# UVM_INFO apb_monitor.sv(31) @ 255: uvm_test_top.env.act_agt.act_mon [apb_active_monitor] | SEQUENCE MONITORED | READ_WRITE = 1 | apb_write_paddr = 93 | apb_write_data = x | 
# UVM_INFO apb_scoreboard.sv(80) @ 255: uvm_test_top.env.scb [apb_scoreboard]  ERROR_DETECTED | READ_DATA = x | DATA READ FROM = x | PSLVERR = 1 
# TOTAL TRANSACTIONS : 6 | MATCHES = 0 | MISMATCHES = 0 |
# --------------------------------- SCOREBOARD ------------------------------------------
# 
# ** Error: INVALID INPUTS
#    Time: 255 ns Started: 255 ns  Scope: top.intf File: apb_interface.sv Line: 50 Expr: not($isunknown({READ_WRITE,apb_write_paddr,apb_read_paddr,apb_write_data}))
# ** Info: PCLK is toggling
#    Time: 255 ns Started: 255 ns  Scope: top.intf File: apb_interface.sv Line: 36
# UVM_INFO apb_driver.sv(25) @ 265: uvm_test_top.env.act_agt.drv [apb_driver] | SEQUENCE DRIVEN | READ_WRITE = 0 | apb_write_paddr = 5 | apb_write_data = 160 | 
# ** Error: INVALID INPUTS
#    Time: 265 ns Started: 265 ns  Scope: top.intf File: apb_interface.sv Line: 50 Expr: not($isunknown({READ_WRITE,apb_write_paddr,apb_read_paddr,apb_write_data}))
# ** Info: PCLK is toggling
#    Time: 265 ns Started: 265 ns  Scope: top.intf File: apb_interface.sv Line: 36
# ** Error: INVALID INPUTS
#    Time: 275 ns Started: 275 ns  Scope: top.intf File: apb_interface.sv Line: 50 Expr: not($isunknown({READ_WRITE,apb_write_paddr,apb_read_paddr,apb_write_data}))
# ** Info: PCLK is toggling
#    Time: 275 ns Started: 275 ns  Scope: top.intf File: apb_interface.sv Line: 36
# inputs received here @ 285
# UVM_INFO apb_monitor.sv(31) @ 285: uvm_test_top.env.act_agt.act_mon [apb_active_monitor] | SEQUENCE MONITORED | READ_WRITE = 0 | apb_write_paddr = 5 | apb_write_data = 160 | 
# UVM_INFO apb_monitor.sv(73) @ 285: uvm_test_top.env.pass_agt.pass_mon [apb_passive_monitor] | SEQUENCE MONITORED | READ_WRITE = x | apb_read_paddr = x | PSLVERR = 0 | 
# outputs received here @ 285
# DATA = 160, WRITTEN IN MEMORY ADDRESS = 5 
# TOTAL TRANSACTIONS : 7 | MATCHES = 0 | MISMATCHES = 0 |
# --------------------------------- SCOREBOARD ------------------------------------------
# 
# ** Error: INVALID INPUTS
#    Time: 285 ns Started: 285 ns  Scope: top.intf File: apb_interface.sv Line: 50 Expr: not($isunknown({READ_WRITE,apb_write_paddr,apb_read_paddr,apb_write_data}))
# ** Info: PCLK is toggling
#    Time: 285 ns Started: 285 ns  Scope: top.intf File: apb_interface.sv Line: 36
# UVM_INFO apb_driver.sv(31) @ 295: uvm_test_top.env.act_agt.drv [apb_driver] | SEQUENCE DRIVEN | READ_WRITE = 1 | apb_read_paddr = 5 |
# ** Error: INVALID INPUTS
#    Time: 295 ns Started: 295 ns  Scope: top.intf File: apb_interface.sv Line: 50 Expr: not($isunknown({READ_WRITE,apb_write_paddr,apb_read_paddr,apb_write_data}))
# ** Info: PCLK is toggling
#    Time: 295 ns Started: 295 ns  Scope: top.intf File: apb_interface.sv Line: 36
# ** Info: VALID INPUTS
#    Time: 305 ns Started: 305 ns  Scope: top.intf File: apb_interface.sv Line: 47
# ** Info: PCLK is toggling
#    Time: 305 ns Started: 305 ns  Scope: top.intf File: apb_interface.sv Line: 36
# UVM_INFO apb_monitor.sv(73) @ 315: uvm_test_top.env.pass_agt.pass_mon [apb_passive_monitor] | SEQUENCE MONITORED | READ_WRITE = x | apb_read_paddr = x | PSLVERR = 0 | 
# outputs received here @ 315
# inputs received here @ 315
# UVM_INFO apb_monitor.sv(31) @ 315: uvm_test_top.env.act_agt.act_mon [apb_active_monitor] | SEQUENCE MONITORED | READ_WRITE = 1 | apb_write_paddr = 5 | apb_write_data = 160 | 
# UVM_INFO apb_scoreboard.sv(75) @ 315: uvm_test_top.env.scb [apb_scoreboard]  TEST_PASSED | READ_DATA = 160 | DATA READ FROM = 5 | PSLVERR = 0
# TOTAL TRANSACTIONS : 8 | MATCHES = 1 | MISMATCHES = 0 |
# --------------------------------- SCOREBOARD ------------------------------------------
# 
# ** Info: VALID INPUTS
#    Time: 315 ns Started: 315 ns  Scope: top.intf File: apb_interface.sv Line: 47
# ** Info: PCLK is toggling
#    Time: 315 ns Started: 315 ns  Scope: top.intf File: apb_interface.sv Line: 36
# UVM_INFO apb_driver.sv(25) @ 325: uvm_test_top.env.act_agt.drv [apb_driver] | SEQUENCE DRIVEN | READ_WRITE = 0 | apb_write_paddr = 116 | apb_write_data = 1 | 
# ** Info: VALID INPUTS
#    Time: 325 ns Started: 325 ns  Scope: top.intf File: apb_interface.sv Line: 47
# ** Info: PCLK is toggling
#    Time: 325 ns Started: 325 ns  Scope: top.intf File: apb_interface.sv Line: 36
# ** Info: VALID INPUTS
#    Time: 335 ns Started: 335 ns  Scope: top.intf File: apb_interface.sv Line: 47
# ** Info: PCLK is toggling
#    Time: 335 ns Started: 335 ns  Scope: top.intf File: apb_interface.sv Line: 36
# inputs received here @ 345
# UVM_INFO apb_monitor.sv(31) @ 345: uvm_test_top.env.act_agt.act_mon [apb_active_monitor] | SEQUENCE MONITORED | READ_WRITE = 0 | apb_write_paddr = 116 | apb_write_data = 1 | 
# UVM_INFO apb_monitor.sv(73) @ 345: uvm_test_top.env.pass_agt.pass_mon [apb_passive_monitor] | SEQUENCE MONITORED | READ_WRITE = x | apb_read_paddr = x | PSLVERR = 0 | 
# outputs received here @ 345
# DATA = 1, WRITTEN IN MEMORY ADDRESS = 116 
# TOTAL TRANSACTIONS : 9 | MATCHES = 1 | MISMATCHES = 0 |
# --------------------------------- SCOREBOARD ------------------------------------------
# 
# ** Info: VALID INPUTS
#    Time: 345 ns Started: 345 ns  Scope: top.intf File: apb_interface.sv Line: 47
# ** Info: PCLK is toggling
#    Time: 345 ns Started: 345 ns  Scope: top.intf File: apb_interface.sv Line: 36
# UVM_INFO apb_driver.sv(31) @ 355: uvm_test_top.env.act_agt.drv [apb_driver] | SEQUENCE DRIVEN | READ_WRITE = 1 | apb_read_paddr = 116 |
# ** Info: VALID INPUTS
#    Time: 355 ns Started: 355 ns  Scope: top.intf File: apb_interface.sv Line: 47
# ** Info: PCLK is toggling
#    Time: 355 ns Started: 355 ns  Scope: top.intf File: apb_interface.sv Line: 36
# ** Info: VALID INPUTS
#    Time: 365 ns Started: 365 ns  Scope: top.intf File: apb_interface.sv Line: 47
# ** Info: PCLK is toggling
#    Time: 365 ns Started: 365 ns  Scope: top.intf File: apb_interface.sv Line: 36
# UVM_INFO apb_monitor.sv(73) @ 375: uvm_test_top.env.pass_agt.pass_mon [apb_passive_monitor] | SEQUENCE MONITORED | READ_WRITE = x | apb_read_paddr = x | PSLVERR = 0 | 
# outputs received here @ 375
# inputs received here @ 375
# UVM_INFO apb_monitor.sv(31) @ 375: uvm_test_top.env.act_agt.act_mon [apb_active_monitor] | SEQUENCE MONITORED | READ_WRITE = 1 | apb_write_paddr = 116 | apb_write_data = 1 | 
# UVM_INFO apb_scoreboard.sv(75) @ 375: uvm_test_top.env.scb [apb_scoreboard]  TEST_PASSED | READ_DATA = 1 | DATA READ FROM = 116 | PSLVERR = 0
# TOTAL TRANSACTIONS : 10 | MATCHES = 2 | MISMATCHES = 0 |
# --------------------------------- SCOREBOARD ------------------------------------------
# 
# ** Info: VALID INPUTS
#    Time: 375 ns Started: 375 ns  Scope: top.intf File: apb_interface.sv Line: 47
# ** Info: PCLK is toggling
#    Time: 375 ns Started: 375 ns  Scope: top.intf File: apb_interface.sv Line: 36
# UVM_INFO apb_driver.sv(25) @ 385: uvm_test_top.env.act_agt.drv [apb_driver] | SEQUENCE DRIVEN | READ_WRITE = 0 | apb_write_paddr = 248 | apb_write_data = 225 | 
# ** Info: VALID INPUTS
#    Time: 385 ns Started: 385 ns  Scope: top.intf File: apb_interface.sv Line: 47
# ** Info: PCLK is toggling
#    Time: 385 ns Started: 385 ns  Scope: top.intf File: apb_interface.sv Line: 36
# ** Info: VALID INPUTS
#    Time: 395 ns Started: 395 ns  Scope: top.intf File: apb_interface.sv Line: 47
# ** Info: PCLK is toggling
#    Time: 395 ns Started: 395 ns  Scope: top.intf File: apb_interface.sv Line: 36
# inputs received here @ 405
# UVM_INFO apb_monitor.sv(31) @ 405: uvm_test_top.env.act_agt.act_mon [apb_active_monitor] | SEQUENCE MONITORED | READ_WRITE = 0 | apb_write_paddr = 248 | apb_write_data = 225 | 
# UVM_INFO apb_monitor.sv(73) @ 405: uvm_test_top.env.pass_agt.pass_mon [apb_passive_monitor] | SEQUENCE MONITORED | READ_WRITE = x | apb_read_paddr = x | PSLVERR = 0 | 
# outputs received here @ 405
# DATA = 225, WRITTEN IN MEMORY ADDRESS = 248 
# TOTAL TRANSACTIONS : 11 | MATCHES = 2 | MISMATCHES = 0 |
# --------------------------------- SCOREBOARD ------------------------------------------
# 
# ** Info: VALID INPUTS
#    Time: 405 ns Started: 405 ns  Scope: top.intf File: apb_interface.sv Line: 47
# ** Info: PCLK is toggling
#    Time: 405 ns Started: 405 ns  Scope: top.intf File: apb_interface.sv Line: 36
# UVM_INFO apb_driver.sv(31) @ 415: uvm_test_top.env.act_agt.drv [apb_driver] | SEQUENCE DRIVEN | READ_WRITE = 1 | apb_read_paddr = 248 |
# ** Info: VALID INPUTS
#    Time: 415 ns Started: 415 ns  Scope: top.intf File: apb_interface.sv Line: 47
# ** Info: PCLK is toggling
#    Time: 415 ns Started: 415 ns  Scope: top.intf File: apb_interface.sv Line: 36
# ** Info: VALID INPUTS
#    Time: 425 ns Started: 425 ns  Scope: top.intf File: apb_interface.sv Line: 47
# ** Info: PCLK is toggling
#    Time: 425 ns Started: 425 ns  Scope: top.intf File: apb_interface.sv Line: 36
# UVM_INFO apb_monitor.sv(73) @ 435: uvm_test_top.env.pass_agt.pass_mon [apb_passive_monitor] | SEQUENCE MONITORED | READ_WRITE = x | apb_read_paddr = x | PSLVERR = 0 | 
# outputs received here @ 435
# inputs received here @ 435
# UVM_INFO apb_monitor.sv(31) @ 435: uvm_test_top.env.act_agt.act_mon [apb_active_monitor] | SEQUENCE MONITORED | READ_WRITE = 1 | apb_write_paddr = 248 | apb_write_data = 225 | 
# UVM_INFO apb_scoreboard.sv(75) @ 435: uvm_test_top.env.scb [apb_scoreboard]  TEST_PASSED | READ_DATA = 225 | DATA READ FROM = 248 | PSLVERR = 0
# TOTAL TRANSACTIONS : 12 | MATCHES = 3 | MISMATCHES = 0 |
# --------------------------------- SCOREBOARD ------------------------------------------
# 
# ** Info: VALID INPUTS
#    Time: 435 ns Started: 435 ns  Scope: top.intf File: apb_interface.sv Line: 47
# ** Info: PCLK is toggling
#    Time: 435 ns Started: 435 ns  Scope: top.intf File: apb_interface.sv Line: 36
# UVM_INFO apb_driver.sv(25) @ 445: uvm_test_top.env.act_agt.drv [apb_driver] | SEQUENCE DRIVEN | READ_WRITE = 0 | apb_write_paddr = 3 | apb_write_data = 155 | 
# ** Info: VALID INPUTS
#    Time: 445 ns Started: 445 ns  Scope: top.intf File: apb_interface.sv Line: 47
# ** Info: PCLK is toggling
#    Time: 445 ns Started: 445 ns  Scope: top.intf File: apb_interface.sv Line: 36
# ** Info: VALID INPUTS
#    Time: 455 ns Started: 455 ns  Scope: top.intf File: apb_interface.sv Line: 47
# ** Info: PCLK is toggling
#    Time: 455 ns Started: 455 ns  Scope: top.intf File: apb_interface.sv Line: 36
# inputs received here @ 465
# UVM_INFO apb_monitor.sv(31) @ 465: uvm_test_top.env.act_agt.act_mon [apb_active_monitor] | SEQUENCE MONITORED | READ_WRITE = 0 | apb_write_paddr = 3 | apb_write_data = 155 | 
# UVM_INFO apb_monitor.sv(73) @ 465: uvm_test_top.env.pass_agt.pass_mon [apb_passive_monitor] | SEQUENCE MONITORED | READ_WRITE = x | apb_read_paddr = x | PSLVERR = 0 | 
# outputs received here @ 465
# DATA = 155, WRITTEN IN MEMORY ADDRESS = 3 
# TOTAL TRANSACTIONS : 13 | MATCHES = 3 | MISMATCHES = 0 |
# --------------------------------- SCOREBOARD ------------------------------------------
# 
# ** Info: VALID INPUTS
#    Time: 465 ns Started: 465 ns  Scope: top.intf File: apb_interface.sv Line: 47
# ** Info: PCLK is toggling
#    Time: 465 ns Started: 465 ns  Scope: top.intf File: apb_interface.sv Line: 36
# UVM_INFO apb_driver.sv(31) @ 475: uvm_test_top.env.act_agt.drv [apb_driver] | SEQUENCE DRIVEN | READ_WRITE = 1 | apb_read_paddr = 3 |
# ** Info: VALID INPUTS
#    Time: 475 ns Started: 475 ns  Scope: top.intf File: apb_interface.sv Line: 47
# ** Info: PCLK is toggling
#    Time: 475 ns Started: 475 ns  Scope: top.intf File: apb_interface.sv Line: 36
# ** Info: VALID INPUTS
#    Time: 485 ns Started: 485 ns  Scope: top.intf File: apb_interface.sv Line: 47
# ** Info: PCLK is toggling
#    Time: 485 ns Started: 485 ns  Scope: top.intf File: apb_interface.sv Line: 36
# UVM_INFO apb_monitor.sv(73) @ 495: uvm_test_top.env.pass_agt.pass_mon [apb_passive_monitor] | SEQUENCE MONITORED | READ_WRITE = x | apb_read_paddr = x | PSLVERR = 0 | 
# outputs received here @ 495
# inputs received here @ 495
# UVM_INFO apb_monitor.sv(31) @ 495: uvm_test_top.env.act_agt.act_mon [apb_active_monitor] | SEQUENCE MONITORED | READ_WRITE = 1 | apb_write_paddr = 3 | apb_write_data = 155 | 
# UVM_INFO apb_scoreboard.sv(75) @ 495: uvm_test_top.env.scb [apb_scoreboard]  TEST_PASSED | READ_DATA = 155 | DATA READ FROM = 3 | PSLVERR = 0
# TOTAL TRANSACTIONS : 14 | MATCHES = 4 | MISMATCHES = 0 |
# --------------------------------- SCOREBOARD ------------------------------------------
# 
# ** Info: VALID INPUTS
#    Time: 495 ns Started: 495 ns  Scope: top.intf File: apb_interface.sv Line: 47
# ** Info: PCLK is toggling
#    Time: 495 ns Started: 495 ns  Scope: top.intf File: apb_interface.sv Line: 36
# UVM_INFO apb_driver.sv(25) @ 505: uvm_test_top.env.act_agt.drv [apb_driver] | SEQUENCE DRIVEN | READ_WRITE = 0 | apb_write_paddr = 393 | apb_write_data = 187 | 
# ** Info: VALID INPUTS
#    Time: 505 ns Started: 505 ns  Scope: top.intf File: apb_interface.sv Line: 47
# ** Info: PCLK is toggling
#    Time: 505 ns Started: 505 ns  Scope: top.intf File: apb_interface.sv Line: 36
# ** Info: VALID INPUTS
#    Time: 515 ns Started: 515 ns  Scope: top.intf File: apb_interface.sv Line: 47
# ** Info: PCLK is toggling
#    Time: 515 ns Started: 515 ns  Scope: top.intf File: apb_interface.sv Line: 36
# inputs received here @ 525
# UVM_INFO apb_monitor.sv(31) @ 525: uvm_test_top.env.act_agt.act_mon [apb_active_monitor] | SEQUENCE MONITORED | READ_WRITE = 0 | apb_write_paddr = 393 | apb_write_data = 187 | 
# UVM_INFO apb_monitor.sv(73) @ 525: uvm_test_top.env.pass_agt.pass_mon [apb_passive_monitor] | SEQUENCE MONITORED | READ_WRITE = x | apb_read_paddr = x | PSLVERR = 0 | 
# outputs received here @ 525
# DATA = 187, WRITTEN IN MEMORY ADDRESS = 393 
# TOTAL TRANSACTIONS : 15 | MATCHES = 4 | MISMATCHES = 0 |
# --------------------------------- SCOREBOARD ------------------------------------------
# 
# ** Info: VALID INPUTS
#    Time: 525 ns Started: 525 ns  Scope: top.intf File: apb_interface.sv Line: 47
# ** Info: PCLK is toggling
#    Time: 525 ns Started: 525 ns  Scope: top.intf File: apb_interface.sv Line: 36
# UVM_INFO apb_driver.sv(31) @ 535: uvm_test_top.env.act_agt.drv [apb_driver] | SEQUENCE DRIVEN | READ_WRITE = 1 | apb_read_paddr = 393 |
# ** Info: VALID INPUTS
#    Time: 535 ns Started: 535 ns  Scope: top.intf File: apb_interface.sv Line: 47
# ** Info: PCLK is toggling
#    Time: 535 ns Started: 535 ns  Scope: top.intf File: apb_interface.sv Line: 36
# ** Info: VALID INPUTS
#    Time: 545 ns Started: 545 ns  Scope: top.intf File: apb_interface.sv Line: 47
# ** Info: PCLK is toggling
#    Time: 545 ns Started: 545 ns  Scope: top.intf File: apb_interface.sv Line: 36
# UVM_INFO apb_monitor.sv(73) @ 555: uvm_test_top.env.pass_agt.pass_mon [apb_passive_monitor] | SEQUENCE MONITORED | READ_WRITE = x | apb_read_paddr = x | PSLVERR = 0 | 
# outputs received here @ 555
# inputs received here @ 555
# UVM_INFO apb_monitor.sv(31) @ 555: uvm_test_top.env.act_agt.act_mon [apb_active_monitor] | SEQUENCE MONITORED | READ_WRITE = 1 | apb_write_paddr = 393 | apb_write_data = 187 | 
# UVM_INFO apb_scoreboard.sv(85) @ 555: uvm_test_top.env.scb [apb_scoreboard]  TEST_FAILED  | READ_DATA = x | DATA READ FROM = 393 | PSLVERR = 0 
# TOTAL TRANSACTIONS : 16 | MATCHES = 4 | MISMATCHES = 1 |
# --------------------------------- SCOREBOARD ------------------------------------------
# 
# ** Info: VALID INPUTS
#    Time: 555 ns Started: 555 ns  Scope: top.intf File: apb_interface.sv Line: 47
# ** Info: PCLK is toggling
#    Time: 555 ns Started: 555 ns  Scope: top.intf File: apb_interface.sv Line: 36
# UVM_INFO apb_driver.sv(25) @ 565: uvm_test_top.env.act_agt.drv [apb_driver] | SEQUENCE DRIVEN | READ_WRITE = 0 | apb_write_paddr = 339 | apb_write_data = 190 | 
# ** Info: VALID INPUTS
#    Time: 565 ns Started: 565 ns  Scope: top.intf File: apb_interface.sv Line: 47
# ** Info: PCLK is toggling
#    Time: 565 ns Started: 565 ns  Scope: top.intf File: apb_interface.sv Line: 36
# ** Info: VALID INPUTS
#    Time: 575 ns Started: 575 ns  Scope: top.intf File: apb_interface.sv Line: 47
# ** Info: PCLK is toggling
#    Time: 575 ns Started: 575 ns  Scope: top.intf File: apb_interface.sv Line: 36
# inputs received here @ 585
# UVM_INFO apb_monitor.sv(31) @ 585: uvm_test_top.env.act_agt.act_mon [apb_active_monitor] | SEQUENCE MONITORED | READ_WRITE = 0 | apb_write_paddr = 339 | apb_write_data = 190 | 
# UVM_INFO apb_monitor.sv(73) @ 585: uvm_test_top.env.pass_agt.pass_mon [apb_passive_monitor] | SEQUENCE MONITORED | READ_WRITE = x | apb_read_paddr = x | PSLVERR = 0 | 
# outputs received here @ 585
# DATA = 190, WRITTEN IN MEMORY ADDRESS = 339 
# TOTAL TRANSACTIONS : 17 | MATCHES = 4 | MISMATCHES = 1 |
# --------------------------------- SCOREBOARD ------------------------------------------
# 
# ** Info: VALID INPUTS
#    Time: 585 ns Started: 585 ns  Scope: top.intf File: apb_interface.sv Line: 47
# ** Info: PCLK is toggling
#    Time: 585 ns Started: 585 ns  Scope: top.intf File: apb_interface.sv Line: 36
# UVM_INFO apb_driver.sv(31) @ 595: uvm_test_top.env.act_agt.drv [apb_driver] | SEQUENCE DRIVEN | READ_WRITE = 1 | apb_read_paddr = 339 |
# ** Info: VALID INPUTS
#    Time: 595 ns Started: 595 ns  Scope: top.intf File: apb_interface.sv Line: 47
# ** Info: PCLK is toggling
#    Time: 595 ns Started: 595 ns  Scope: top.intf File: apb_interface.sv Line: 36
# ** Info: VALID INPUTS
#    Time: 605 ns Started: 605 ns  Scope: top.intf File: apb_interface.sv Line: 47
# ** Info: PCLK is toggling
#    Time: 605 ns Started: 605 ns  Scope: top.intf File: apb_interface.sv Line: 36
# UVM_INFO apb_monitor.sv(73) @ 615: uvm_test_top.env.pass_agt.pass_mon [apb_passive_monitor] | SEQUENCE MONITORED | READ_WRITE = x | apb_read_paddr = x | PSLVERR = 0 | 
# outputs received here @ 615
# inputs received here @ 615
# UVM_INFO apb_monitor.sv(31) @ 615: uvm_test_top.env.act_agt.act_mon [apb_active_monitor] | SEQUENCE MONITORED | READ_WRITE = 1 | apb_write_paddr = 339 | apb_write_data = 190 | 
# UVM_INFO apb_scoreboard.sv(75) @ 615: uvm_test_top.env.scb [apb_scoreboard]  TEST_PASSED | READ_DATA = 190 | DATA READ FROM = 339 | PSLVERR = 0
# TOTAL TRANSACTIONS : 18 | MATCHES = 5 | MISMATCHES = 1 |
# --------------------------------- SCOREBOARD ------------------------------------------
# 
# ** Info: VALID INPUTS
#    Time: 615 ns Started: 615 ns  Scope: top.intf File: apb_interface.sv Line: 47
# ** Info: PCLK is toggling
#    Time: 615 ns Started: 615 ns  Scope: top.intf File: apb_interface.sv Line: 36
# UVM_INFO apb_driver.sv(25) @ 625: uvm_test_top.env.act_agt.drv [apb_driver] | SEQUENCE DRIVEN | READ_WRITE = 0 | apb_write_paddr = 8 | apb_write_data = 213 | 
# ** Info: VALID INPUTS
#    Time: 625 ns Started: 625 ns  Scope: top.intf File: apb_interface.sv Line: 47
# ** Info: PCLK is toggling
#    Time: 625 ns Started: 625 ns  Scope: top.intf File: apb_interface.sv Line: 36
# ** Info: VALID INPUTS
#    Time: 635 ns Started: 635 ns  Scope: top.intf File: apb_interface.sv Line: 47
# ** Info: PCLK is toggling
#    Time: 635 ns Started: 635 ns  Scope: top.intf File: apb_interface.sv Line: 36
# inputs received here @ 645
# UVM_INFO apb_monitor.sv(31) @ 645: uvm_test_top.env.act_agt.act_mon [apb_active_monitor] | SEQUENCE MONITORED | READ_WRITE = 0 | apb_write_paddr = 8 | apb_write_data = 213 | 
# UVM_INFO apb_monitor.sv(73) @ 645: uvm_test_top.env.pass_agt.pass_mon [apb_passive_monitor] | SEQUENCE MONITORED | READ_WRITE = x | apb_read_paddr = x | PSLVERR = 0 | 
# outputs received here @ 645
# DATA = 213, WRITTEN IN MEMORY ADDRESS = 8 
# TOTAL TRANSACTIONS : 19 | MATCHES = 5 | MISMATCHES = 1 |
# --------------------------------- SCOREBOARD ------------------------------------------
# 
# ** Info: VALID INPUTS
#    Time: 645 ns Started: 645 ns  Scope: top.intf File: apb_interface.sv Line: 47
# ** Info: PCLK is toggling
#    Time: 645 ns Started: 645 ns  Scope: top.intf File: apb_interface.sv Line: 36
# UVM_INFO apb_driver.sv(31) @ 655: uvm_test_top.env.act_agt.drv [apb_driver] | SEQUENCE DRIVEN | READ_WRITE = 1 | apb_read_paddr = 8 |
# ** Info: VALID INPUTS
#    Time: 655 ns Started: 655 ns  Scope: top.intf File: apb_interface.sv Line: 47
# ** Info: PCLK is toggling
#    Time: 655 ns Started: 655 ns  Scope: top.intf File: apb_interface.sv Line: 36
# ** Info: VALID INPUTS
#    Time: 665 ns Started: 665 ns  Scope: top.intf File: apb_interface.sv Line: 47
# ** Info: PCLK is toggling
#    Time: 665 ns Started: 665 ns  Scope: top.intf File: apb_interface.sv Line: 36
# UVM_INFO apb_monitor.sv(73) @ 675: uvm_test_top.env.pass_agt.pass_mon [apb_passive_monitor] | SEQUENCE MONITORED | READ_WRITE = x | apb_read_paddr = x | PSLVERR = 0 | 
# outputs received here @ 675
# inputs received here @ 675
# UVM_INFO apb_monitor.sv(31) @ 675: uvm_test_top.env.act_agt.act_mon [apb_active_monitor] | SEQUENCE MONITORED | READ_WRITE = 1 | apb_write_paddr = 8 | apb_write_data = 213 | 
# UVM_INFO apb_scoreboard.sv(85) @ 675: uvm_test_top.env.scb [apb_scoreboard]  TEST_FAILED  | READ_DATA = x | DATA READ FROM = 8 | PSLVERR = 0 
# TOTAL TRANSACTIONS : 20 | MATCHES = 5 | MISMATCHES = 2 |
# --------------------------------- SCOREBOARD ------------------------------------------
# 
# ** Info: VALID INPUTS
#    Time: 675 ns Started: 675 ns  Scope: top.intf File: apb_interface.sv Line: 47
# ** Info: PCLK is toggling
#    Time: 675 ns Started: 675 ns  Scope: top.intf File: apb_interface.sv Line: 36
# UVM_INFO apb_driver.sv(25) @ 685: uvm_test_top.env.act_agt.drv [apb_driver] | SEQUENCE DRIVEN | READ_WRITE = 0 | apb_write_paddr = 437 | apb_write_data = 201 | 
# ** Info: VALID INPUTS
#    Time: 685 ns Started: 685 ns  Scope: top.intf File: apb_interface.sv Line: 47
# ** Info: PCLK is toggling
#    Time: 685 ns Started: 685 ns  Scope: top.intf File: apb_interface.sv Line: 36
# ** Info: VALID INPUTS
#    Time: 695 ns Started: 695 ns  Scope: top.intf File: apb_interface.sv Line: 47
# ** Info: PCLK is toggling
#    Time: 695 ns Started: 695 ns  Scope: top.intf File: apb_interface.sv Line: 36
# inputs received here @ 705
# UVM_INFO apb_monitor.sv(31) @ 705: uvm_test_top.env.act_agt.act_mon [apb_active_monitor] | SEQUENCE MONITORED | READ_WRITE = 0 | apb_write_paddr = 437 | apb_write_data = 201 | 
# UVM_INFO apb_monitor.sv(73) @ 705: uvm_test_top.env.pass_agt.pass_mon [apb_passive_monitor] | SEQUENCE MONITORED | READ_WRITE = x | apb_read_paddr = x | PSLVERR = 0 | 
# outputs received here @ 705
# DATA = 201, WRITTEN IN MEMORY ADDRESS = 437 
# TOTAL TRANSACTIONS : 21 | MATCHES = 5 | MISMATCHES = 2 |
# --------------------------------- SCOREBOARD ------------------------------------------
# 
# ** Info: VALID INPUTS
#    Time: 705 ns Started: 705 ns  Scope: top.intf File: apb_interface.sv Line: 47
# ** Info: PCLK is toggling
#    Time: 705 ns Started: 705 ns  Scope: top.intf File: apb_interface.sv Line: 36
# UVM_INFO apb_driver.sv(31) @ 715: uvm_test_top.env.act_agt.drv [apb_driver] | SEQUENCE DRIVEN | READ_WRITE = 1 | apb_read_paddr = 437 |
# ** Info: VALID INPUTS
#    Time: 715 ns Started: 715 ns  Scope: top.intf File: apb_interface.sv Line: 47
# ** Info: PCLK is toggling
#    Time: 715 ns Started: 715 ns  Scope: top.intf File: apb_interface.sv Line: 36
# ** Info: VALID INPUTS
#    Time: 725 ns Started: 725 ns  Scope: top.intf File: apb_interface.sv Line: 47
# ** Info: PCLK is toggling
#    Time: 725 ns Started: 725 ns  Scope: top.intf File: apb_interface.sv Line: 36
# UVM_INFO apb_monitor.sv(73) @ 735: uvm_test_top.env.pass_agt.pass_mon [apb_passive_monitor] | SEQUENCE MONITORED | READ_WRITE = x | apb_read_paddr = x | PSLVERR = 0 | 
# outputs received here @ 735
# inputs received here @ 735
# UVM_INFO apb_monitor.sv(31) @ 735: uvm_test_top.env.act_agt.act_mon [apb_active_monitor] | SEQUENCE MONITORED | READ_WRITE = 1 | apb_write_paddr = 437 | apb_write_data = 201 | 
# UVM_INFO apb_scoreboard.sv(85) @ 735: uvm_test_top.env.scb [apb_scoreboard]  TEST_FAILED  | READ_DATA = x | DATA READ FROM = 437 | PSLVERR = 0 
# TOTAL TRANSACTIONS : 22 | MATCHES = 5 | MISMATCHES = 3 |
# --------------------------------- SCOREBOARD ------------------------------------------
# 
# ** Info: VALID INPUTS
#    Time: 735 ns Started: 735 ns  Scope: top.intf File: apb_interface.sv Line: 47
# ** Info: PCLK is toggling
#    Time: 735 ns Started: 735 ns  Scope: top.intf File: apb_interface.sv Line: 36
# UVM_INFO apb_driver.sv(25) @ 745: uvm_test_top.env.act_agt.drv [apb_driver] | SEQUENCE DRIVEN | READ_WRITE = 0 | apb_write_paddr = 125 | apb_write_data = 68 | 
# ** Info: VALID INPUTS
#    Time: 745 ns Started: 745 ns  Scope: top.intf File: apb_interface.sv Line: 47
# ** Info: PCLK is toggling
#    Time: 745 ns Started: 745 ns  Scope: top.intf File: apb_interface.sv Line: 36
# ** Info: VALID INPUTS
#    Time: 755 ns Started: 755 ns  Scope: top.intf File: apb_interface.sv Line: 47
# ** Info: PCLK is toggling
#    Time: 755 ns Started: 755 ns  Scope: top.intf File: apb_interface.sv Line: 36
# inputs received here @ 765
# UVM_INFO apb_monitor.sv(31) @ 765: uvm_test_top.env.act_agt.act_mon [apb_active_monitor] | SEQUENCE MONITORED | READ_WRITE = 0 | apb_write_paddr = 125 | apb_write_data = 68 | 
# UVM_INFO apb_monitor.sv(73) @ 765: uvm_test_top.env.pass_agt.pass_mon [apb_passive_monitor] | SEQUENCE MONITORED | READ_WRITE = x | apb_read_paddr = x | PSLVERR = 0 | 
# outputs received here @ 765
# DATA = 68, WRITTEN IN MEMORY ADDRESS = 125 
# TOTAL TRANSACTIONS : 23 | MATCHES = 5 | MISMATCHES = 3 |
# --------------------------------- SCOREBOARD ------------------------------------------
# 
# ** Info: VALID INPUTS
#    Time: 765 ns Started: 765 ns  Scope: top.intf File: apb_interface.sv Line: 47
# ** Info: PCLK is toggling
#    Time: 765 ns Started: 765 ns  Scope: top.intf File: apb_interface.sv Line: 36
# UVM_INFO apb_driver.sv(31) @ 775: uvm_test_top.env.act_agt.drv [apb_driver] | SEQUENCE DRIVEN | READ_WRITE = 1 | apb_read_paddr = 125 |
# ** Info: VALID INPUTS
#    Time: 775 ns Started: 775 ns  Scope: top.intf File: apb_interface.sv Line: 47
# ** Info: PCLK is toggling
#    Time: 775 ns Started: 775 ns  Scope: top.intf File: apb_interface.sv Line: 36
# ** Info: VALID INPUTS
#    Time: 785 ns Started: 785 ns  Scope: top.intf File: apb_interface.sv Line: 47
# ** Info: PCLK is toggling
#    Time: 785 ns Started: 785 ns  Scope: top.intf File: apb_interface.sv Line: 36
# UVM_INFO apb_monitor.sv(73) @ 795: uvm_test_top.env.pass_agt.pass_mon [apb_passive_monitor] | SEQUENCE MONITORED | READ_WRITE = x | apb_read_paddr = x | PSLVERR = 0 | 
# outputs received here @ 795
# inputs received here @ 795
# UVM_INFO apb_monitor.sv(31) @ 795: uvm_test_top.env.act_agt.act_mon [apb_active_monitor] | SEQUENCE MONITORED | READ_WRITE = 1 | apb_write_paddr = 125 | apb_write_data = 68 | 
# UVM_INFO apb_scoreboard.sv(85) @ 795: uvm_test_top.env.scb [apb_scoreboard]  TEST_FAILED  | READ_DATA = x | DATA READ FROM = 125 | PSLVERR = 0 
# TOTAL TRANSACTIONS : 24 | MATCHES = 5 | MISMATCHES = 4 |
# --------------------------------- SCOREBOARD ------------------------------------------
# 
# ** Info: VALID INPUTS
#    Time: 795 ns Started: 795 ns  Scope: top.intf File: apb_interface.sv Line: 47
# ** Info: PCLK is toggling
#    Time: 795 ns Started: 795 ns  Scope: top.intf File: apb_interface.sv Line: 36
# UVM_INFO apb_driver.sv(25) @ 805: uvm_test_top.env.act_agt.drv [apb_driver] | SEQUENCE DRIVEN | READ_WRITE = 0 | apb_write_paddr = 209 | apb_write_data = 192 | 
# ** Info: VALID INPUTS
#    Time: 805 ns Started: 805 ns  Scope: top.intf File: apb_interface.sv Line: 47
# ** Info: PCLK is toggling
#    Time: 805 ns Started: 805 ns  Scope: top.intf File: apb_interface.sv Line: 36
# ** Info: VALID INPUTS
#    Time: 815 ns Started: 815 ns  Scope: top.intf File: apb_interface.sv Line: 47
# ** Info: PCLK is toggling
#    Time: 815 ns Started: 815 ns  Scope: top.intf File: apb_interface.sv Line: 36
# inputs received here @ 825
# UVM_INFO apb_monitor.sv(31) @ 825: uvm_test_top.env.act_agt.act_mon [apb_active_monitor] | SEQUENCE MONITORED | READ_WRITE = 0 | apb_write_paddr = 209 | apb_write_data = 192 | 
# UVM_INFO apb_monitor.sv(73) @ 825: uvm_test_top.env.pass_agt.pass_mon [apb_passive_monitor] | SEQUENCE MONITORED | READ_WRITE = x | apb_read_paddr = x | PSLVERR = 0 | 
# outputs received here @ 825
# DATA = 192, WRITTEN IN MEMORY ADDRESS = 209 
# TOTAL TRANSACTIONS : 25 | MATCHES = 5 | MISMATCHES = 4 |
# --------------------------------- SCOREBOARD ------------------------------------------
# 
# ** Info: VALID INPUTS
#    Time: 825 ns Started: 825 ns  Scope: top.intf File: apb_interface.sv Line: 47
# ** Info: PCLK is toggling
#    Time: 825 ns Started: 825 ns  Scope: top.intf File: apb_interface.sv Line: 36
# UVM_INFO apb_driver.sv(31) @ 835: uvm_test_top.env.act_agt.drv [apb_driver] | SEQUENCE DRIVEN | READ_WRITE = 1 | apb_read_paddr = 209 |
# ** Info: VALID INPUTS
#    Time: 835 ns Started: 835 ns  Scope: top.intf File: apb_interface.sv Line: 47
# ** Info: PCLK is toggling
#    Time: 835 ns Started: 835 ns  Scope: top.intf File: apb_interface.sv Line: 36
# ** Info: VALID INPUTS
#    Time: 845 ns Started: 845 ns  Scope: top.intf File: apb_interface.sv Line: 47
# ** Info: PCLK is toggling
#    Time: 845 ns Started: 845 ns  Scope: top.intf File: apb_interface.sv Line: 36
# UVM_INFO apb_monitor.sv(73) @ 855: uvm_test_top.env.pass_agt.pass_mon [apb_passive_monitor] | SEQUENCE MONITORED | READ_WRITE = x | apb_read_paddr = x | PSLVERR = 0 | 
# outputs received here @ 855
# inputs received here @ 855
# UVM_INFO apb_monitor.sv(31) @ 855: uvm_test_top.env.act_agt.act_mon [apb_active_monitor] | SEQUENCE MONITORED | READ_WRITE = 1 | apb_write_paddr = 209 | apb_write_data = 192 | 
# UVM_INFO apb_scoreboard.sv(75) @ 855: uvm_test_top.env.scb [apb_scoreboard]  TEST_PASSED | READ_DATA = 192 | DATA READ FROM = 209 | PSLVERR = 0
# TOTAL TRANSACTIONS : 26 | MATCHES = 6 | MISMATCHES = 4 |
# --------------------------------- SCOREBOARD ------------------------------------------
# 
# ** Info: VALID INPUTS
#    Time: 855 ns Started: 855 ns  Scope: top.intf File: apb_interface.sv Line: 47
# ** Info: PCLK is toggling
#    Time: 855 ns Started: 855 ns  Scope: top.intf File: apb_interface.sv Line: 36
# UVM_INFO apb_driver.sv(25) @ 865: uvm_test_top.env.act_agt.drv [apb_driver] | SEQUENCE DRIVEN | READ_WRITE = 0 | apb_write_paddr = 67 | apb_write_data = 145 | 
# ** Info: VALID INPUTS
#    Time: 865 ns Started: 865 ns  Scope: top.intf File: apb_interface.sv Line: 47
# ** Info: PCLK is toggling
#    Time: 865 ns Started: 865 ns  Scope: top.intf File: apb_interface.sv Line: 36
# ** Info: VALID INPUTS
#    Time: 875 ns Started: 875 ns  Scope: top.intf File: apb_interface.sv Line: 47
# ** Info: PCLK is toggling
#    Time: 875 ns Started: 875 ns  Scope: top.intf File: apb_interface.sv Line: 36
# inputs received here @ 885
# UVM_INFO apb_monitor.sv(31) @ 885: uvm_test_top.env.act_agt.act_mon [apb_active_monitor] | SEQUENCE MONITORED | READ_WRITE = 0 | apb_write_paddr = 67 | apb_write_data = 145 | 
# UVM_INFO apb_monitor.sv(73) @ 885: uvm_test_top.env.pass_agt.pass_mon [apb_passive_monitor] | SEQUENCE MONITORED | READ_WRITE = x | apb_read_paddr = x | PSLVERR = 0 | 
# outputs received here @ 885
# DATA = 145, WRITTEN IN MEMORY ADDRESS = 67 
# TOTAL TRANSACTIONS : 27 | MATCHES = 6 | MISMATCHES = 4 |
# --------------------------------- SCOREBOARD ------------------------------------------
# 
# ** Info: VALID INPUTS
#    Time: 885 ns Started: 885 ns  Scope: top.intf File: apb_interface.sv Line: 47
# ** Info: PCLK is toggling
#    Time: 885 ns Started: 885 ns  Scope: top.intf File: apb_interface.sv Line: 36
# UVM_INFO apb_driver.sv(31) @ 895: uvm_test_top.env.act_agt.drv [apb_driver] | SEQUENCE DRIVEN | READ_WRITE = 1 | apb_read_paddr = 67 |
# ** Info: VALID INPUTS
#    Time: 895 ns Started: 895 ns  Scope: top.intf File: apb_interface.sv Line: 47
# ** Info: PCLK is toggling
#    Time: 895 ns Started: 895 ns  Scope: top.intf File: apb_interface.sv Line: 36
# ** Info: VALID INPUTS
#    Time: 905 ns Started: 905 ns  Scope: top.intf File: apb_interface.sv Line: 47
# ** Info: PCLK is toggling
#    Time: 905 ns Started: 905 ns  Scope: top.intf File: apb_interface.sv Line: 36
# UVM_INFO apb_monitor.sv(73) @ 915: uvm_test_top.env.pass_agt.pass_mon [apb_passive_monitor] | SEQUENCE MONITORED | READ_WRITE = x | apb_read_paddr = x | PSLVERR = 0 | 
# outputs received here @ 915
# inputs received here @ 915
# UVM_INFO apb_monitor.sv(31) @ 915: uvm_test_top.env.act_agt.act_mon [apb_active_monitor] | SEQUENCE MONITORED | READ_WRITE = 1 | apb_write_paddr = 67 | apb_write_data = 145 | 
# UVM_INFO apb_scoreboard.sv(75) @ 915: uvm_test_top.env.scb [apb_scoreboard]  TEST_PASSED | READ_DATA = 145 | DATA READ FROM = 67 | PSLVERR = 0
# TOTAL TRANSACTIONS : 28 | MATCHES = 7 | MISMATCHES = 4 |
# --------------------------------- SCOREBOARD ------------------------------------------
# 
# ** Info: VALID INPUTS
#    Time: 915 ns Started: 915 ns  Scope: top.intf File: apb_interface.sv Line: 47
# ** Info: PCLK is toggling
#    Time: 915 ns Started: 915 ns  Scope: top.intf File: apb_interface.sv Line: 36
# UVM_INFO apb_driver.sv(25) @ 925: uvm_test_top.env.act_agt.drv [apb_driver] | SEQUENCE DRIVEN | READ_WRITE = 0 | apb_write_paddr = 74 | apb_write_data = 193 | 
# ** Info: VALID INPUTS
#    Time: 925 ns Started: 925 ns  Scope: top.intf File: apb_interface.sv Line: 47
# ** Info: PCLK is toggling
#    Time: 925 ns Started: 925 ns  Scope: top.intf File: apb_interface.sv Line: 36
# ** Info: VALID INPUTS
#    Time: 935 ns Started: 935 ns  Scope: top.intf File: apb_interface.sv Line: 47
# ** Info: PCLK is toggling
#    Time: 935 ns Started: 935 ns  Scope: top.intf File: apb_interface.sv Line: 36
# inputs received here @ 945
# UVM_INFO apb_monitor.sv(31) @ 945: uvm_test_top.env.act_agt.act_mon [apb_active_monitor] | SEQUENCE MONITORED | READ_WRITE = 0 | apb_write_paddr = 74 | apb_write_data = 193 | 
# UVM_INFO apb_monitor.sv(73) @ 945: uvm_test_top.env.pass_agt.pass_mon [apb_passive_monitor] | SEQUENCE MONITORED | READ_WRITE = x | apb_read_paddr = x | PSLVERR = 0 | 
# outputs received here @ 945
# DATA = 193, WRITTEN IN MEMORY ADDRESS = 74 
# TOTAL TRANSACTIONS : 29 | MATCHES = 7 | MISMATCHES = 4 |
# --------------------------------- SCOREBOARD ------------------------------------------
# 
# ** Info: VALID INPUTS
#    Time: 945 ns Started: 945 ns  Scope: top.intf File: apb_interface.sv Line: 47
# ** Info: PCLK is toggling
#    Time: 945 ns Started: 945 ns  Scope: top.intf File: apb_interface.sv Line: 36
# UVM_INFO apb_driver.sv(31) @ 955: uvm_test_top.env.act_agt.drv [apb_driver] | SEQUENCE DRIVEN | READ_WRITE = 1 | apb_read_paddr = 74 |
# ** Info: VALID INPUTS
#    Time: 955 ns Started: 955 ns  Scope: top.intf File: apb_interface.sv Line: 47
# ** Info: PCLK is toggling
#    Time: 955 ns Started: 955 ns  Scope: top.intf File: apb_interface.sv Line: 36
# ** Info: VALID INPUTS
#    Time: 965 ns Started: 965 ns  Scope: top.intf File: apb_interface.sv Line: 47
# ** Info: PCLK is toggling
#    Time: 965 ns Started: 965 ns  Scope: top.intf File: apb_interface.sv Line: 36
# UVM_INFO apb_monitor.sv(73) @ 975: uvm_test_top.env.pass_agt.pass_mon [apb_passive_monitor] | SEQUENCE MONITORED | READ_WRITE = x | apb_read_paddr = x | PSLVERR = 0 | 
# outputs received here @ 975
# inputs received here @ 975
# UVM_INFO apb_monitor.sv(31) @ 975: uvm_test_top.env.act_agt.act_mon [apb_active_monitor] | SEQUENCE MONITORED | READ_WRITE = 1 | apb_write_paddr = 74 | apb_write_data = 193 | 
# UVM_INFO apb_scoreboard.sv(75) @ 975: uvm_test_top.env.scb [apb_scoreboard]  TEST_PASSED | READ_DATA = 193 | DATA READ FROM = 74 | PSLVERR = 0
# TOTAL TRANSACTIONS : 30 | MATCHES = 8 | MISMATCHES = 4 |
# --------------------------------- SCOREBOARD ------------------------------------------
# 
# ** Info: VALID INPUTS
#    Time: 975 ns Started: 975 ns  Scope: top.intf File: apb_interface.sv Line: 47
# ** Info: PCLK is toggling
#    Time: 975 ns Started: 975 ns  Scope: top.intf File: apb_interface.sv Line: 36
# UVM_INFO apb_driver.sv(25) @ 985: uvm_test_top.env.act_agt.drv [apb_driver] | SEQUENCE DRIVEN | READ_WRITE = 0 | apb_write_paddr = 286 | apb_write_data = 183 | 
# ** Info: VALID INPUTS
#    Time: 985 ns Started: 985 ns  Scope: top.intf File: apb_interface.sv Line: 47
# ** Info: PCLK is toggling
#    Time: 985 ns Started: 985 ns  Scope: top.intf File: apb_interface.sv Line: 36
# ** Info: VALID INPUTS
#    Time: 995 ns Started: 995 ns  Scope: top.intf File: apb_interface.sv Line: 47
# ** Info: PCLK is toggling
#    Time: 995 ns Started: 995 ns  Scope: top.intf File: apb_interface.sv Line: 36
# inputs received here @ 1005
# UVM_INFO apb_monitor.sv(31) @ 1005: uvm_test_top.env.act_agt.act_mon [apb_active_monitor] | SEQUENCE MONITORED | READ_WRITE = 0 | apb_write_paddr = 286 | apb_write_data = 183 | 
# UVM_INFO apb_monitor.sv(73) @ 1005: uvm_test_top.env.pass_agt.pass_mon [apb_passive_monitor] | SEQUENCE MONITORED | READ_WRITE = x | apb_read_paddr = x | PSLVERR = 0 | 
# outputs received here @ 1005
# DATA = 183, WRITTEN IN MEMORY ADDRESS = 286 
# TOTAL TRANSACTIONS : 31 | MATCHES = 8 | MISMATCHES = 4 |
# --------------------------------- SCOREBOARD ------------------------------------------
# 
# ** Info: VALID INPUTS
#    Time: 1005 ns Started: 1005 ns  Scope: top.intf File: apb_interface.sv Line: 47
# ** Info: PCLK is toggling
#    Time: 1005 ns Started: 1005 ns  Scope: top.intf File: apb_interface.sv Line: 36
# UVM_INFO apb_driver.sv(31) @ 1015: uvm_test_top.env.act_agt.drv [apb_driver] | SEQUENCE DRIVEN | READ_WRITE = 1 | apb_read_paddr = 286 |
# ** Info: VALID INPUTS
#    Time: 1015 ns Started: 1015 ns  Scope: top.intf File: apb_interface.sv Line: 47
# ** Info: PCLK is toggling
#    Time: 1015 ns Started: 1015 ns  Scope: top.intf File: apb_interface.sv Line: 36
# ** Info: VALID INPUTS
#    Time: 1025 ns Started: 1025 ns  Scope: top.intf File: apb_interface.sv Line: 47
# ** Info: PCLK is toggling
#    Time: 1025 ns Started: 1025 ns  Scope: top.intf File: apb_interface.sv Line: 36
# UVM_INFO apb_monitor.sv(73) @ 1035: uvm_test_top.env.pass_agt.pass_mon [apb_passive_monitor] | SEQUENCE MONITORED | READ_WRITE = x | apb_read_paddr = x | PSLVERR = 0 | 
# outputs received here @ 1035
# inputs received here @ 1035
# UVM_INFO apb_monitor.sv(31) @ 1035: uvm_test_top.env.act_agt.act_mon [apb_active_monitor] | SEQUENCE MONITORED | READ_WRITE = 1 | apb_write_paddr = 286 | apb_write_data = 183 | 
# UVM_INFO apb_scoreboard.sv(85) @ 1035: uvm_test_top.env.scb [apb_scoreboard]  TEST_FAILED  | READ_DATA = x | DATA READ FROM = 286 | PSLVERR = 0 
# TOTAL TRANSACTIONS : 32 | MATCHES = 8 | MISMATCHES = 5 |
# --------------------------------- SCOREBOARD ------------------------------------------
# 
# ** Info: VALID INPUTS
#    Time: 1035 ns Started: 1035 ns  Scope: top.intf File: apb_interface.sv Line: 47
# ** Info: PCLK is toggling
#    Time: 1035 ns Started: 1035 ns  Scope: top.intf File: apb_interface.sv Line: 36
# UVM_INFO apb_driver.sv(25) @ 1045: uvm_test_top.env.act_agt.drv [apb_driver] | SEQUENCE DRIVEN | READ_WRITE = 0 | apb_write_paddr = 433 | apb_write_data = 34 | 
# ** Info: VALID INPUTS
#    Time: 1045 ns Started: 1045 ns  Scope: top.intf File: apb_interface.sv Line: 47
# ** Info: PCLK is toggling
#    Time: 1045 ns Started: 1045 ns  Scope: top.intf File: apb_interface.sv Line: 36
# ** Info: VALID INPUTS
#    Time: 1055 ns Started: 1055 ns  Scope: top.intf File: apb_interface.sv Line: 47
# ** Info: PCLK is toggling
#    Time: 1055 ns Started: 1055 ns  Scope: top.intf File: apb_interface.sv Line: 36
# inputs received here @ 1065
# UVM_INFO apb_monitor.sv(31) @ 1065: uvm_test_top.env.act_agt.act_mon [apb_active_monitor] | SEQUENCE MONITORED | READ_WRITE = 0 | apb_write_paddr = 433 | apb_write_data = 34 | 
# UVM_INFO apb_monitor.sv(73) @ 1065: uvm_test_top.env.pass_agt.pass_mon [apb_passive_monitor] | SEQUENCE MONITORED | READ_WRITE = x | apb_read_paddr = x | PSLVERR = 0 | 
# outputs received here @ 1065
# DATA = 34, WRITTEN IN MEMORY ADDRESS = 433 
# TOTAL TRANSACTIONS : 33 | MATCHES = 8 | MISMATCHES = 5 |
# --------------------------------- SCOREBOARD ------------------------------------------
# 
# ** Info: VALID INPUTS
#    Time: 1065 ns Started: 1065 ns  Scope: top.intf File: apb_interface.sv Line: 47
# ** Info: PCLK is toggling
#    Time: 1065 ns Started: 1065 ns  Scope: top.intf File: apb_interface.sv Line: 36
# UVM_INFO apb_driver.sv(31) @ 1075: uvm_test_top.env.act_agt.drv [apb_driver] | SEQUENCE DRIVEN | READ_WRITE = 1 | apb_read_paddr = 433 |
# ** Info: VALID INPUTS
#    Time: 1075 ns Started: 1075 ns  Scope: top.intf File: apb_interface.sv Line: 47
# ** Info: PCLK is toggling
#    Time: 1075 ns Started: 1075 ns  Scope: top.intf File: apb_interface.sv Line: 36
# ** Info: VALID INPUTS
#    Time: 1085 ns Started: 1085 ns  Scope: top.intf File: apb_interface.sv Line: 47
# ** Info: PCLK is toggling
#    Time: 1085 ns Started: 1085 ns  Scope: top.intf File: apb_interface.sv Line: 36
# UVM_INFO apb_monitor.sv(73) @ 1095: uvm_test_top.env.pass_agt.pass_mon [apb_passive_monitor] | SEQUENCE MONITORED | READ_WRITE = x | apb_read_paddr = x | PSLVERR = 0 | 
# outputs received here @ 1095
# inputs received here @ 1095
# UVM_INFO apb_monitor.sv(31) @ 1095: uvm_test_top.env.act_agt.act_mon [apb_active_monitor] | SEQUENCE MONITORED | READ_WRITE = 1 | apb_write_paddr = 433 | apb_write_data = 34 | 
# UVM_INFO apb_scoreboard.sv(75) @ 1095: uvm_test_top.env.scb [apb_scoreboard]  TEST_PASSED | READ_DATA = 34 | DATA READ FROM = 433 | PSLVERR = 0
# TOTAL TRANSACTIONS : 34 | MATCHES = 9 | MISMATCHES = 5 |
# --------------------------------- SCOREBOARD ------------------------------------------
# 
# ** Info: VALID INPUTS
#    Time: 1095 ns Started: 1095 ns  Scope: top.intf File: apb_interface.sv Line: 47
# ** Info: PCLK is toggling
#    Time: 1095 ns Started: 1095 ns  Scope: top.intf File: apb_interface.sv Line: 36
# UVM_INFO apb_driver.sv(25) @ 1105: uvm_test_top.env.act_agt.drv [apb_driver] | SEQUENCE DRIVEN | READ_WRITE = 0 | apb_write_paddr = 445 | apb_write_data = 101 | 
# ** Info: VALID INPUTS
#    Time: 1105 ns Started: 1105 ns  Scope: top.intf File: apb_interface.sv Line: 47
# ** Info: PCLK is toggling
#    Time: 1105 ns Started: 1105 ns  Scope: top.intf File: apb_interface.sv Line: 36
# ** Info: VALID INPUTS
#    Time: 1115 ns Started: 1115 ns  Scope: top.intf File: apb_interface.sv Line: 47
# ** Info: PCLK is toggling
#    Time: 1115 ns Started: 1115 ns  Scope: top.intf File: apb_interface.sv Line: 36
# inputs received here @ 1125
# UVM_INFO apb_monitor.sv(31) @ 1125: uvm_test_top.env.act_agt.act_mon [apb_active_monitor] | SEQUENCE MONITORED | READ_WRITE = 0 | apb_write_paddr = 445 | apb_write_data = 101 | 
# UVM_INFO apb_monitor.sv(73) @ 1125: uvm_test_top.env.pass_agt.pass_mon [apb_passive_monitor] | SEQUENCE MONITORED | READ_WRITE = x | apb_read_paddr = x | PSLVERR = 0 | 
# outputs received here @ 1125
# DATA = 101, WRITTEN IN MEMORY ADDRESS = 445 
# TOTAL TRANSACTIONS : 35 | MATCHES = 9 | MISMATCHES = 5 |
# --------------------------------- SCOREBOARD ------------------------------------------
# 
# ** Info: VALID INPUTS
#    Time: 1125 ns Started: 1125 ns  Scope: top.intf File: apb_interface.sv Line: 47
# ** Info: PCLK is toggling
#    Time: 1125 ns Started: 1125 ns  Scope: top.intf File: apb_interface.sv Line: 36
# UVM_INFO apb_driver.sv(31) @ 1135: uvm_test_top.env.act_agt.drv [apb_driver] | SEQUENCE DRIVEN | READ_WRITE = 1 | apb_read_paddr = 445 |
# ** Info: VALID INPUTS
#    Time: 1135 ns Started: 1135 ns  Scope: top.intf File: apb_interface.sv Line: 47
# ** Info: PCLK is toggling
#    Time: 1135 ns Started: 1135 ns  Scope: top.intf File: apb_interface.sv Line: 36
# ** Info: VALID INPUTS
#    Time: 1145 ns Started: 1145 ns  Scope: top.intf File: apb_interface.sv Line: 47
# ** Info: PCLK is toggling
#    Time: 1145 ns Started: 1145 ns  Scope: top.intf File: apb_interface.sv Line: 36
# UVM_INFO apb_monitor.sv(73) @ 1155: uvm_test_top.env.pass_agt.pass_mon [apb_passive_monitor] | SEQUENCE MONITORED | READ_WRITE = x | apb_read_paddr = x | PSLVERR = 0 | 
# outputs received here @ 1155
# inputs received here @ 1155
# UVM_INFO apb_monitor.sv(31) @ 1155: uvm_test_top.env.act_agt.act_mon [apb_active_monitor] | SEQUENCE MONITORED | READ_WRITE = 1 | apb_write_paddr = 445 | apb_write_data = 101 | 
# UVM_INFO apb_scoreboard.sv(75) @ 1155: uvm_test_top.env.scb [apb_scoreboard]  TEST_PASSED | READ_DATA = 101 | DATA READ FROM = 445 | PSLVERR = 0
# TOTAL TRANSACTIONS : 36 | MATCHES = 10 | MISMATCHES = 5 |
# --------------------------------- SCOREBOARD ------------------------------------------
# 
# ** Info: VALID INPUTS
#    Time: 1155 ns Started: 1155 ns  Scope: top.intf File: apb_interface.sv Line: 47
# ** Info: PCLK is toggling
#    Time: 1155 ns Started: 1155 ns  Scope: top.intf File: apb_interface.sv Line: 36
# UVM_INFO apb_driver.sv(25) @ 1165: uvm_test_top.env.act_agt.drv [apb_driver] | SEQUENCE DRIVEN | READ_WRITE = 0 | apb_write_paddr = 190 | apb_write_data = 62 | 
# ** Info: VALID INPUTS
#    Time: 1165 ns Started: 1165 ns  Scope: top.intf File: apb_interface.sv Line: 47
# ** Info: PCLK is toggling
#    Time: 1165 ns Started: 1165 ns  Scope: top.intf File: apb_interface.sv Line: 36
# ** Info: VALID INPUTS
#    Time: 1175 ns Started: 1175 ns  Scope: top.intf File: apb_interface.sv Line: 47
# ** Info: PCLK is toggling
#    Time: 1175 ns Started: 1175 ns  Scope: top.intf File: apb_interface.sv Line: 36
# inputs received here @ 1185
# UVM_INFO apb_monitor.sv(31) @ 1185: uvm_test_top.env.act_agt.act_mon [apb_active_monitor] | SEQUENCE MONITORED | READ_WRITE = 0 | apb_write_paddr = 190 | apb_write_data = 62 | 
# UVM_INFO apb_monitor.sv(73) @ 1185: uvm_test_top.env.pass_agt.pass_mon [apb_passive_monitor] | SEQUENCE MONITORED | READ_WRITE = x | apb_read_paddr = x | PSLVERR = 0 | 
# outputs received here @ 1185
# DATA = 62, WRITTEN IN MEMORY ADDRESS = 190 
# TOTAL TRANSACTIONS : 37 | MATCHES = 10 | MISMATCHES = 5 |
# --------------------------------- SCOREBOARD ------------------------------------------
# 
# ** Info: VALID INPUTS
#    Time: 1185 ns Started: 1185 ns  Scope: top.intf File: apb_interface.sv Line: 47
# ** Info: PCLK is toggling
#    Time: 1185 ns Started: 1185 ns  Scope: top.intf File: apb_interface.sv Line: 36
# UVM_INFO apb_driver.sv(31) @ 1195: uvm_test_top.env.act_agt.drv [apb_driver] | SEQUENCE DRIVEN | READ_WRITE = 1 | apb_read_paddr = 190 |
# ** Info: VALID INPUTS
#    Time: 1195 ns Started: 1195 ns  Scope: top.intf File: apb_interface.sv Line: 47
# ** Info: PCLK is toggling
#    Time: 1195 ns Started: 1195 ns  Scope: top.intf File: apb_interface.sv Line: 36
# ** Info: VALID INPUTS
#    Time: 1205 ns Started: 1205 ns  Scope: top.intf File: apb_interface.sv Line: 47
# ** Info: PCLK is toggling
#    Time: 1205 ns Started: 1205 ns  Scope: top.intf File: apb_interface.sv Line: 36
# UVM_INFO apb_monitor.sv(73) @ 1215: uvm_test_top.env.pass_agt.pass_mon [apb_passive_monitor] | SEQUENCE MONITORED | READ_WRITE = x | apb_read_paddr = x | PSLVERR = 0 | 
# outputs received here @ 1215
# inputs received here @ 1215
# UVM_INFO apb_monitor.sv(31) @ 1215: uvm_test_top.env.act_agt.act_mon [apb_active_monitor] | SEQUENCE MONITORED | READ_WRITE = 1 | apb_write_paddr = 190 | apb_write_data = 62 | 
# UVM_INFO apb_scoreboard.sv(85) @ 1215: uvm_test_top.env.scb [apb_scoreboard]  TEST_FAILED  | READ_DATA = x | DATA READ FROM = 190 | PSLVERR = 0 
# TOTAL TRANSACTIONS : 38 | MATCHES = 10 | MISMATCHES = 6 |
# --------------------------------- SCOREBOARD ------------------------------------------
# 
# ** Info: VALID INPUTS
#    Time: 1215 ns Started: 1215 ns  Scope: top.intf File: apb_interface.sv Line: 47
# ** Info: PCLK is toggling
#    Time: 1215 ns Started: 1215 ns  Scope: top.intf File: apb_interface.sv Line: 36
# UVM_INFO apb_driver.sv(25) @ 1225: uvm_test_top.env.act_agt.drv [apb_driver] | SEQUENCE DRIVEN | READ_WRITE = 0 | apb_write_paddr = 462 | apb_write_data = 47 | 
# ** Info: VALID INPUTS
#    Time: 1225 ns Started: 1225 ns  Scope: top.intf File: apb_interface.sv Line: 47
# ** Info: PCLK is toggling
#    Time: 1225 ns Started: 1225 ns  Scope: top.intf File: apb_interface.sv Line: 36
# ** Info: VALID INPUTS
#    Time: 1235 ns Started: 1235 ns  Scope: top.intf File: apb_interface.sv Line: 47
# ** Info: PCLK is toggling
#    Time: 1235 ns Started: 1235 ns  Scope: top.intf File: apb_interface.sv Line: 36
# inputs received here @ 1245
# UVM_INFO apb_monitor.sv(31) @ 1245: uvm_test_top.env.act_agt.act_mon [apb_active_monitor] | SEQUENCE MONITORED | READ_WRITE = 0 | apb_write_paddr = 462 | apb_write_data = 47 | 
# UVM_INFO apb_monitor.sv(73) @ 1245: uvm_test_top.env.pass_agt.pass_mon [apb_passive_monitor] | SEQUENCE MONITORED | READ_WRITE = x | apb_read_paddr = x | PSLVERR = 0 | 
# outputs received here @ 1245
# DATA = 47, WRITTEN IN MEMORY ADDRESS = 462 
# TOTAL TRANSACTIONS : 39 | MATCHES = 10 | MISMATCHES = 6 |
# --------------------------------- SCOREBOARD ------------------------------------------
# 
# ** Info: VALID INPUTS
#    Time: 1245 ns Started: 1245 ns  Scope: top.intf File: apb_interface.sv Line: 47
# ** Info: PCLK is toggling
#    Time: 1245 ns Started: 1245 ns  Scope: top.intf File: apb_interface.sv Line: 36
# UVM_INFO apb_driver.sv(31) @ 1255: uvm_test_top.env.act_agt.drv [apb_driver] | SEQUENCE DRIVEN | READ_WRITE = 1 | apb_read_paddr = 462 |
# ** Info: VALID INPUTS
#    Time: 1255 ns Started: 1255 ns  Scope: top.intf File: apb_interface.sv Line: 47
# ** Info: PCLK is toggling
#    Time: 1255 ns Started: 1255 ns  Scope: top.intf File: apb_interface.sv Line: 36
# ** Info: VALID INPUTS
#    Time: 1265 ns Started: 1265 ns  Scope: top.intf File: apb_interface.sv Line: 47
# ** Info: PCLK is toggling
#    Time: 1265 ns Started: 1265 ns  Scope: top.intf File: apb_interface.sv Line: 36
# UVM_INFO apb_monitor.sv(73) @ 1275: uvm_test_top.env.pass_agt.pass_mon [apb_passive_monitor] | SEQUENCE MONITORED | READ_WRITE = x | apb_read_paddr = x | PSLVERR = 0 | 
# outputs received here @ 1275
# inputs received here @ 1275
# UVM_INFO apb_monitor.sv(31) @ 1275: uvm_test_top.env.act_agt.act_mon [apb_active_monitor] | SEQUENCE MONITORED | READ_WRITE = 1 | apb_write_paddr = 462 | apb_write_data = 47 | 
# UVM_INFO apb_scoreboard.sv(85) @ 1275: uvm_test_top.env.scb [apb_scoreboard]  TEST_FAILED  | READ_DATA = x | DATA READ FROM = 462 | PSLVERR = 0 
# TOTAL TRANSACTIONS : 40 | MATCHES = 10 | MISMATCHES = 7 |
# --------------------------------- SCOREBOARD ------------------------------------------
# 
# ** Info: VALID INPUTS
#    Time: 1275 ns Started: 1275 ns  Scope: top.intf File: apb_interface.sv Line: 47
# ** Info: PCLK is toggling
#    Time: 1275 ns Started: 1275 ns  Scope: top.intf File: apb_interface.sv Line: 36
# UVM_INFO apb_driver.sv(25) @ 1285: uvm_test_top.env.act_agt.drv [apb_driver] | SEQUENCE DRIVEN | READ_WRITE = 0 | apb_write_paddr = 337 | apb_write_data = 226 | 
# ** Info: VALID INPUTS
#    Time: 1285 ns Started: 1285 ns  Scope: top.intf File: apb_interface.sv Line: 47
# ** Info: PCLK is toggling
#    Time: 1285 ns Started: 1285 ns  Scope: top.intf File: apb_interface.sv Line: 36
# ** Info: VALID INPUTS
#    Time: 1295 ns Started: 1295 ns  Scope: top.intf File: apb_interface.sv Line: 47
# ** Info: PCLK is toggling
#    Time: 1295 ns Started: 1295 ns  Scope: top.intf File: apb_interface.sv Line: 36
# inputs received here @ 1305
# UVM_INFO apb_monitor.sv(31) @ 1305: uvm_test_top.env.act_agt.act_mon [apb_active_monitor] | SEQUENCE MONITORED | READ_WRITE = 0 | apb_write_paddr = 337 | apb_write_data = 226 | 
# UVM_INFO apb_monitor.sv(73) @ 1305: uvm_test_top.env.pass_agt.pass_mon [apb_passive_monitor] | SEQUENCE MONITORED | READ_WRITE = x | apb_read_paddr = x | PSLVERR = 0 | 
# outputs received here @ 1305
# DATA = 226, WRITTEN IN MEMORY ADDRESS = 337 
# TOTAL TRANSACTIONS : 41 | MATCHES = 10 | MISMATCHES = 7 |
# --------------------------------- SCOREBOARD ------------------------------------------
# 
# ** Info: VALID INPUTS
#    Time: 1305 ns Started: 1305 ns  Scope: top.intf File: apb_interface.sv Line: 47
# ** Info: PCLK is toggling
#    Time: 1305 ns Started: 1305 ns  Scope: top.intf File: apb_interface.sv Line: 36
# UVM_INFO apb_driver.sv(31) @ 1315: uvm_test_top.env.act_agt.drv [apb_driver] | SEQUENCE DRIVEN | READ_WRITE = 1 | apb_read_paddr = 337 |
# ** Info: VALID INPUTS
#    Time: 1315 ns Started: 1315 ns  Scope: top.intf File: apb_interface.sv Line: 47
# ** Info: PCLK is toggling
#    Time: 1315 ns Started: 1315 ns  Scope: top.intf File: apb_interface.sv Line: 36
# ** Info: VALID INPUTS
#    Time: 1325 ns Started: 1325 ns  Scope: top.intf File: apb_interface.sv Line: 47
# ** Info: PCLK is toggling
#    Time: 1325 ns Started: 1325 ns  Scope: top.intf File: apb_interface.sv Line: 36
# UVM_INFO apb_monitor.sv(73) @ 1335: uvm_test_top.env.pass_agt.pass_mon [apb_passive_monitor] | SEQUENCE MONITORED | READ_WRITE = x | apb_read_paddr = x | PSLVERR = 0 | 
# outputs received here @ 1335
# inputs received here @ 1335
# UVM_INFO apb_monitor.sv(31) @ 1335: uvm_test_top.env.act_agt.act_mon [apb_active_monitor] | SEQUENCE MONITORED | READ_WRITE = 1 | apb_write_paddr = 337 | apb_write_data = 226 | 
# UVM_INFO apb_scoreboard.sv(75) @ 1335: uvm_test_top.env.scb [apb_scoreboard]  TEST_PASSED | READ_DATA = 226 | DATA READ FROM = 337 | PSLVERR = 0
# TOTAL TRANSACTIONS : 42 | MATCHES = 11 | MISMATCHES = 7 |
# --------------------------------- SCOREBOARD ------------------------------------------
# 
# ** Info: VALID INPUTS
#    Time: 1335 ns Started: 1335 ns  Scope: top.intf File: apb_interface.sv Line: 47
# ** Info: PCLK is toggling
#    Time: 1335 ns Started: 1335 ns  Scope: top.intf File: apb_interface.sv Line: 36
# UVM_INFO apb_driver.sv(25) @ 1345: uvm_test_top.env.act_agt.drv [apb_driver] | SEQUENCE DRIVEN | READ_WRITE = 0 | apb_write_paddr = 362 | apb_write_data = 87 | 
# ** Info: VALID INPUTS
#    Time: 1345 ns Started: 1345 ns  Scope: top.intf File: apb_interface.sv Line: 47
# ** Info: PCLK is toggling
#    Time: 1345 ns Started: 1345 ns  Scope: top.intf File: apb_interface.sv Line: 36
# ** Info: VALID INPUTS
#    Time: 1355 ns Started: 1355 ns  Scope: top.intf File: apb_interface.sv Line: 47
# ** Info: PCLK is toggling
#    Time: 1355 ns Started: 1355 ns  Scope: top.intf File: apb_interface.sv Line: 36
# inputs received here @ 1365
# UVM_INFO apb_monitor.sv(31) @ 1365: uvm_test_top.env.act_agt.act_mon [apb_active_monitor] | SEQUENCE MONITORED | READ_WRITE = 0 | apb_write_paddr = 362 | apb_write_data = 87 | 
# UVM_INFO apb_monitor.sv(73) @ 1365: uvm_test_top.env.pass_agt.pass_mon [apb_passive_monitor] | SEQUENCE MONITORED | READ_WRITE = x | apb_read_paddr = x | PSLVERR = 0 | 
# outputs received here @ 1365
# DATA = 87, WRITTEN IN MEMORY ADDRESS = 362 
# TOTAL TRANSACTIONS : 43 | MATCHES = 11 | MISMATCHES = 7 |
# --------------------------------- SCOREBOARD ------------------------------------------
# 
# ** Info: VALID INPUTS
#    Time: 1365 ns Started: 1365 ns  Scope: top.intf File: apb_interface.sv Line: 47
# ** Info: PCLK is toggling
#    Time: 1365 ns Started: 1365 ns  Scope: top.intf File: apb_interface.sv Line: 36
# UVM_INFO apb_driver.sv(31) @ 1375: uvm_test_top.env.act_agt.drv [apb_driver] | SEQUENCE DRIVEN | READ_WRITE = 1 | apb_read_paddr = 362 |
# ** Info: VALID INPUTS
#    Time: 1375 ns Started: 1375 ns  Scope: top.intf File: apb_interface.sv Line: 47
# ** Info: PCLK is toggling
#    Time: 1375 ns Started: 1375 ns  Scope: top.intf File: apb_interface.sv Line: 36
# ** Info: VALID INPUTS
#    Time: 1385 ns Started: 1385 ns  Scope: top.intf File: apb_interface.sv Line: 47
# ** Info: PCLK is toggling
#    Time: 1385 ns Started: 1385 ns  Scope: top.intf File: apb_interface.sv Line: 36
# UVM_INFO apb_monitor.sv(73) @ 1395: uvm_test_top.env.pass_agt.pass_mon [apb_passive_monitor] | SEQUENCE MONITORED | READ_WRITE = x | apb_read_paddr = x | PSLVERR = 0 | 
# outputs received here @ 1395
# inputs received here @ 1395
# UVM_INFO apb_monitor.sv(31) @ 1395: uvm_test_top.env.act_agt.act_mon [apb_active_monitor] | SEQUENCE MONITORED | READ_WRITE = 1 | apb_write_paddr = 362 | apb_write_data = 87 | 
# UVM_INFO apb_scoreboard.sv(75) @ 1395: uvm_test_top.env.scb [apb_scoreboard]  TEST_PASSED | READ_DATA = 87 | DATA READ FROM = 362 | PSLVERR = 0
# TOTAL TRANSACTIONS : 44 | MATCHES = 12 | MISMATCHES = 7 |
# --------------------------------- SCOREBOARD ------------------------------------------
# 
# ** Info: VALID INPUTS
#    Time: 1395 ns Started: 1395 ns  Scope: top.intf File: apb_interface.sv Line: 47
# ** Info: PCLK is toggling
#    Time: 1395 ns Started: 1395 ns  Scope: top.intf File: apb_interface.sv Line: 36
# UVM_INFO apb_driver.sv(25) @ 1405: uvm_test_top.env.act_agt.drv [apb_driver] | SEQUENCE DRIVEN | READ_WRITE = 0 | apb_write_paddr = 271 | apb_write_data = 84 | 
# ** Info: VALID INPUTS
#    Time: 1405 ns Started: 1405 ns  Scope: top.intf File: apb_interface.sv Line: 47
# ** Info: PCLK is toggling
#    Time: 1405 ns Started: 1405 ns  Scope: top.intf File: apb_interface.sv Line: 36
# ** Info: VALID INPUTS
#    Time: 1415 ns Started: 1415 ns  Scope: top.intf File: apb_interface.sv Line: 47
# ** Info: PCLK is toggling
#    Time: 1415 ns Started: 1415 ns  Scope: top.intf File: apb_interface.sv Line: 36
# inputs received here @ 1425
# UVM_INFO apb_monitor.sv(31) @ 1425: uvm_test_top.env.act_agt.act_mon [apb_active_monitor] | SEQUENCE MONITORED | READ_WRITE = 0 | apb_write_paddr = 271 | apb_write_data = 84 | 
# UVM_INFO apb_monitor.sv(73) @ 1425: uvm_test_top.env.pass_agt.pass_mon [apb_passive_monitor] | SEQUENCE MONITORED | READ_WRITE = x | apb_read_paddr = x | PSLVERR = 0 | 
# outputs received here @ 1425
# DATA = 84, WRITTEN IN MEMORY ADDRESS = 271 
# TOTAL TRANSACTIONS : 45 | MATCHES = 12 | MISMATCHES = 7 |
# --------------------------------- SCOREBOARD ------------------------------------------
# 
# ** Info: VALID INPUTS
#    Time: 1425 ns Started: 1425 ns  Scope: top.intf File: apb_interface.sv Line: 47
# ** Info: PCLK is toggling
#    Time: 1425 ns Started: 1425 ns  Scope: top.intf File: apb_interface.sv Line: 36
# UVM_INFO apb_driver.sv(31) @ 1435: uvm_test_top.env.act_agt.drv [apb_driver] | SEQUENCE DRIVEN | READ_WRITE = 1 | apb_read_paddr = 271 |
# ** Info: VALID INPUTS
#    Time: 1435 ns Started: 1435 ns  Scope: top.intf File: apb_interface.sv Line: 47
# ** Info: PCLK is toggling
#    Time: 1435 ns Started: 1435 ns  Scope: top.intf File: apb_interface.sv Line: 36
# ** Info: VALID INPUTS
#    Time: 1445 ns Started: 1445 ns  Scope: top.intf File: apb_interface.sv Line: 47
# ** Info: PCLK is toggling
#    Time: 1445 ns Started: 1445 ns  Scope: top.intf File: apb_interface.sv Line: 36
# UVM_INFO apb_monitor.sv(73) @ 1455: uvm_test_top.env.pass_agt.pass_mon [apb_passive_monitor] | SEQUENCE MONITORED | READ_WRITE = x | apb_read_paddr = x | PSLVERR = 0 | 
# outputs received here @ 1455
# inputs received here @ 1455
# UVM_INFO apb_monitor.sv(31) @ 1455: uvm_test_top.env.act_agt.act_mon [apb_active_monitor] | SEQUENCE MONITORED | READ_WRITE = 1 | apb_write_paddr = 271 | apb_write_data = 84 | 
# UVM_INFO apb_scoreboard.sv(75) @ 1455: uvm_test_top.env.scb [apb_scoreboard]  TEST_PASSED | READ_DATA = 84 | DATA READ FROM = 271 | PSLVERR = 0
# TOTAL TRANSACTIONS : 46 | MATCHES = 13 | MISMATCHES = 7 |
# --------------------------------- SCOREBOARD ------------------------------------------
# 
# ** Info: VALID INPUTS
#    Time: 1455 ns Started: 1455 ns  Scope: top.intf File: apb_interface.sv Line: 47
# ** Info: PCLK is toggling
#    Time: 1455 ns Started: 1455 ns  Scope: top.intf File: apb_interface.sv Line: 36
# UVM_INFO apb_driver.sv(25) @ 1465: uvm_test_top.env.act_agt.drv [apb_driver] | SEQUENCE DRIVEN | READ_WRITE = 0 | apb_write_paddr = 276 | apb_write_data = 117 | 
# ** Info: VALID INPUTS
#    Time: 1465 ns Started: 1465 ns  Scope: top.intf File: apb_interface.sv Line: 47
# ** Info: PCLK is toggling
#    Time: 1465 ns Started: 1465 ns  Scope: top.intf File: apb_interface.sv Line: 36
# ** Info: VALID INPUTS
#    Time: 1475 ns Started: 1475 ns  Scope: top.intf File: apb_interface.sv Line: 47
# ** Info: PCLK is toggling
#    Time: 1475 ns Started: 1475 ns  Scope: top.intf File: apb_interface.sv Line: 36
# inputs received here @ 1485
# UVM_INFO apb_monitor.sv(31) @ 1485: uvm_test_top.env.act_agt.act_mon [apb_active_monitor] | SEQUENCE MONITORED | READ_WRITE = 0 | apb_write_paddr = 276 | apb_write_data = 117 | 
# UVM_INFO apb_monitor.sv(73) @ 1485: uvm_test_top.env.pass_agt.pass_mon [apb_passive_monitor] | SEQUENCE MONITORED | READ_WRITE = x | apb_read_paddr = x | PSLVERR = 0 | 
# outputs received here @ 1485
# DATA = 117, WRITTEN IN MEMORY ADDRESS = 276 
# TOTAL TRANSACTIONS : 47 | MATCHES = 13 | MISMATCHES = 7 |
# --------------------------------- SCOREBOARD ------------------------------------------
# 
# ** Info: VALID INPUTS
#    Time: 1485 ns Started: 1485 ns  Scope: top.intf File: apb_interface.sv Line: 47
# ** Info: PCLK is toggling
#    Time: 1485 ns Started: 1485 ns  Scope: top.intf File: apb_interface.sv Line: 36
# UVM_INFO apb_driver.sv(31) @ 1495: uvm_test_top.env.act_agt.drv [apb_driver] | SEQUENCE DRIVEN | READ_WRITE = 1 | apb_read_paddr = 276 |
# ** Info: VALID INPUTS
#    Time: 1495 ns Started: 1495 ns  Scope: top.intf File: apb_interface.sv Line: 47
# ** Info: PCLK is toggling
#    Time: 1495 ns Started: 1495 ns  Scope: top.intf File: apb_interface.sv Line: 36
# ** Info: VALID INPUTS
#    Time: 1505 ns Started: 1505 ns  Scope: top.intf File: apb_interface.sv Line: 47
# ** Info: PCLK is toggling
#    Time: 1505 ns Started: 1505 ns  Scope: top.intf File: apb_interface.sv Line: 36
# UVM_INFO apb_monitor.sv(73) @ 1515: uvm_test_top.env.pass_agt.pass_mon [apb_passive_monitor] | SEQUENCE MONITORED | READ_WRITE = x | apb_read_paddr = x | PSLVERR = 0 | 
# outputs received here @ 1515
# inputs received here @ 1515
# UVM_INFO apb_monitor.sv(31) @ 1515: uvm_test_top.env.act_agt.act_mon [apb_active_monitor] | SEQUENCE MONITORED | READ_WRITE = 1 | apb_write_paddr = 276 | apb_write_data = 117 | 
# UVM_INFO apb_scoreboard.sv(75) @ 1515: uvm_test_top.env.scb [apb_scoreboard]  TEST_PASSED | READ_DATA = 117 | DATA READ FROM = 276 | PSLVERR = 0
# TOTAL TRANSACTIONS : 48 | MATCHES = 14 | MISMATCHES = 7 |
# --------------------------------- SCOREBOARD ------------------------------------------
# 
# ** Info: VALID INPUTS
#    Time: 1515 ns Started: 1515 ns  Scope: top.intf File: apb_interface.sv Line: 47
# ** Info: PCLK is toggling
#    Time: 1515 ns Started: 1515 ns  Scope: top.intf File: apb_interface.sv Line: 36
# UVM_INFO apb_driver.sv(25) @ 1525: uvm_test_top.env.act_agt.drv [apb_driver] | SEQUENCE DRIVEN | READ_WRITE = 0 | apb_write_paddr = 438 | apb_write_data = 166 | 
# ** Info: VALID INPUTS
#    Time: 1525 ns Started: 1525 ns  Scope: top.intf File: apb_interface.sv Line: 47
# ** Info: PCLK is toggling
#    Time: 1525 ns Started: 1525 ns  Scope: top.intf File: apb_interface.sv Line: 36
# ** Info: VALID INPUTS
#    Time: 1535 ns Started: 1535 ns  Scope: top.intf File: apb_interface.sv Line: 47
# ** Info: PCLK is toggling
#    Time: 1535 ns Started: 1535 ns  Scope: top.intf File: apb_interface.sv Line: 36
# inputs received here @ 1545
# UVM_INFO apb_monitor.sv(31) @ 1545: uvm_test_top.env.act_agt.act_mon [apb_active_monitor] | SEQUENCE MONITORED | READ_WRITE = 0 | apb_write_paddr = 438 | apb_write_data = 166 | 
# UVM_INFO apb_monitor.sv(73) @ 1545: uvm_test_top.env.pass_agt.pass_mon [apb_passive_monitor] | SEQUENCE MONITORED | READ_WRITE = x | apb_read_paddr = x | PSLVERR = 0 | 
# outputs received here @ 1545
# DATA = 166, WRITTEN IN MEMORY ADDRESS = 438 
# TOTAL TRANSACTIONS : 49 | MATCHES = 14 | MISMATCHES = 7 |
# --------------------------------- SCOREBOARD ------------------------------------------
# 
# ** Info: VALID INPUTS
#    Time: 1545 ns Started: 1545 ns  Scope: top.intf File: apb_interface.sv Line: 47
# ** Info: PCLK is toggling
#    Time: 1545 ns Started: 1545 ns  Scope: top.intf File: apb_interface.sv Line: 36
# UVM_INFO apb_driver.sv(31) @ 1555: uvm_test_top.env.act_agt.drv [apb_driver] | SEQUENCE DRIVEN | READ_WRITE = 1 | apb_read_paddr = 438 |
# ** Info: VALID INPUTS
#    Time: 1555 ns Started: 1555 ns  Scope: top.intf File: apb_interface.sv Line: 47
# ** Info: PCLK is toggling
#    Time: 1555 ns Started: 1555 ns  Scope: top.intf File: apb_interface.sv Line: 36
# ** Info: VALID INPUTS
#    Time: 1565 ns Started: 1565 ns  Scope: top.intf File: apb_interface.sv Line: 47
# ** Info: PCLK is toggling
#    Time: 1565 ns Started: 1565 ns  Scope: top.intf File: apb_interface.sv Line: 36
# UVM_INFO apb_monitor.sv(73) @ 1575: uvm_test_top.env.pass_agt.pass_mon [apb_passive_monitor] | SEQUENCE MONITORED | READ_WRITE = x | apb_read_paddr = x | PSLVERR = 0 | 
# outputs received here @ 1575
# inputs received here @ 1575
# UVM_INFO apb_monitor.sv(31) @ 1575: uvm_test_top.env.act_agt.act_mon [apb_active_monitor] | SEQUENCE MONITORED | READ_WRITE = 1 | apb_write_paddr = 438 | apb_write_data = 166 | 
# UVM_INFO apb_scoreboard.sv(75) @ 1575: uvm_test_top.env.scb [apb_scoreboard]  TEST_PASSED | READ_DATA = 166 | DATA READ FROM = 438 | PSLVERR = 0
# TOTAL TRANSACTIONS : 50 | MATCHES = 15 | MISMATCHES = 7 |
# --------------------------------- SCOREBOARD ------------------------------------------
# 
# ** Info: VALID INPUTS
#    Time: 1575 ns Started: 1575 ns  Scope: top.intf File: apb_interface.sv Line: 47
# ** Info: PCLK is toggling
#    Time: 1575 ns Started: 1575 ns  Scope: top.intf File: apb_interface.sv Line: 36
# UVM_INFO apb_driver.sv(25) @ 1585: uvm_test_top.env.act_agt.drv [apb_driver] | SEQUENCE DRIVEN | READ_WRITE = 0 | apb_write_paddr = 194 | apb_write_data = 132 | 
# ** Info: VALID INPUTS
#    Time: 1585 ns Started: 1585 ns  Scope: top.intf File: apb_interface.sv Line: 47
# ** Info: PCLK is toggling
#    Time: 1585 ns Started: 1585 ns  Scope: top.intf File: apb_interface.sv Line: 36
# ** Info: VALID INPUTS
#    Time: 1595 ns Started: 1595 ns  Scope: top.intf File: apb_interface.sv Line: 47
# ** Info: PCLK is toggling
#    Time: 1595 ns Started: 1595 ns  Scope: top.intf File: apb_interface.sv Line: 36
# inputs received here @ 1605
# UVM_INFO apb_monitor.sv(31) @ 1605: uvm_test_top.env.act_agt.act_mon [apb_active_monitor] | SEQUENCE MONITORED | READ_WRITE = 0 | apb_write_paddr = 194 | apb_write_data = 132 | 
# UVM_INFO apb_monitor.sv(73) @ 1605: uvm_test_top.env.pass_agt.pass_mon [apb_passive_monitor] | SEQUENCE MONITORED | READ_WRITE = x | apb_read_paddr = x | PSLVERR = 0 | 
# outputs received here @ 1605
# DATA = 132, WRITTEN IN MEMORY ADDRESS = 194 
# TOTAL TRANSACTIONS : 51 | MATCHES = 15 | MISMATCHES = 7 |
# --------------------------------- SCOREBOARD ------------------------------------------
# 
# ** Info: VALID INPUTS
#    Time: 1605 ns Started: 1605 ns  Scope: top.intf File: apb_interface.sv Line: 47
# ** Info: PCLK is toggling
#    Time: 1605 ns Started: 1605 ns  Scope: top.intf File: apb_interface.sv Line: 36
# UVM_INFO apb_driver.sv(31) @ 1615: uvm_test_top.env.act_agt.drv [apb_driver] | SEQUENCE DRIVEN | READ_WRITE = 1 | apb_read_paddr = 194 |
# ** Info: VALID INPUTS
#    Time: 1615 ns Started: 1615 ns  Scope: top.intf File: apb_interface.sv Line: 47
# ** Info: PCLK is toggling
#    Time: 1615 ns Started: 1615 ns  Scope: top.intf File: apb_interface.sv Line: 36
# ** Info: VALID INPUTS
#    Time: 1625 ns Started: 1625 ns  Scope: top.intf File: apb_interface.sv Line: 47
# ** Info: PCLK is toggling
#    Time: 1625 ns Started: 1625 ns  Scope: top.intf File: apb_interface.sv Line: 36
# UVM_INFO apb_monitor.sv(73) @ 1635: uvm_test_top.env.pass_agt.pass_mon [apb_passive_monitor] | SEQUENCE MONITORED | READ_WRITE = x | apb_read_paddr = x | PSLVERR = 0 | 
# outputs received here @ 1635
# inputs received here @ 1635
# UVM_INFO apb_monitor.sv(31) @ 1635: uvm_test_top.env.act_agt.act_mon [apb_active_monitor] | SEQUENCE MONITORED | READ_WRITE = 1 | apb_write_paddr = 194 | apb_write_data = 132 | 
# UVM_INFO apb_scoreboard.sv(85) @ 1635: uvm_test_top.env.scb [apb_scoreboard]  TEST_FAILED  | READ_DATA = x | DATA READ FROM = 194 | PSLVERR = 0 
# TOTAL TRANSACTIONS : 52 | MATCHES = 15 | MISMATCHES = 8 |
# --------------------------------- SCOREBOARD ------------------------------------------
# 
# ** Info: VALID INPUTS
#    Time: 1635 ns Started: 1635 ns  Scope: top.intf File: apb_interface.sv Line: 47
# ** Info: PCLK is toggling
#    Time: 1635 ns Started: 1635 ns  Scope: top.intf File: apb_interface.sv Line: 36
# UVM_INFO apb_driver.sv(25) @ 1645: uvm_test_top.env.act_agt.drv [apb_driver] | SEQUENCE DRIVEN | READ_WRITE = 0 | apb_write_paddr = 91 | apb_write_data = 118 | 
# ** Info: VALID INPUTS
#    Time: 1645 ns Started: 1645 ns  Scope: top.intf File: apb_interface.sv Line: 47
# ** Info: PCLK is toggling
#    Time: 1645 ns Started: 1645 ns  Scope: top.intf File: apb_interface.sv Line: 36
# ** Info: VALID INPUTS
#    Time: 1655 ns Started: 1655 ns  Scope: top.intf File: apb_interface.sv Line: 47
# ** Info: PCLK is toggling
#    Time: 1655 ns Started: 1655 ns  Scope: top.intf File: apb_interface.sv Line: 36
# inputs received here @ 1665
# UVM_INFO apb_monitor.sv(31) @ 1665: uvm_test_top.env.act_agt.act_mon [apb_active_monitor] | SEQUENCE MONITORED | READ_WRITE = 0 | apb_write_paddr = 91 | apb_write_data = 118 | 
# UVM_INFO apb_monitor.sv(73) @ 1665: uvm_test_top.env.pass_agt.pass_mon [apb_passive_monitor] | SEQUENCE MONITORED | READ_WRITE = x | apb_read_paddr = x | PSLVERR = 0 | 
# outputs received here @ 1665
# DATA = 118, WRITTEN IN MEMORY ADDRESS = 91 
# TOTAL TRANSACTIONS : 53 | MATCHES = 15 | MISMATCHES = 8 |
# --------------------------------- SCOREBOARD ------------------------------------------
# 
# ** Info: VALID INPUTS
#    Time: 1665 ns Started: 1665 ns  Scope: top.intf File: apb_interface.sv Line: 47
# ** Info: PCLK is toggling
#    Time: 1665 ns Started: 1665 ns  Scope: top.intf File: apb_interface.sv Line: 36
# UVM_INFO apb_driver.sv(31) @ 1675: uvm_test_top.env.act_agt.drv [apb_driver] | SEQUENCE DRIVEN | READ_WRITE = 1 | apb_read_paddr = 91 |
# ** Info: VALID INPUTS
#    Time: 1675 ns Started: 1675 ns  Scope: top.intf File: apb_interface.sv Line: 47
# ** Info: PCLK is toggling
#    Time: 1675 ns Started: 1675 ns  Scope: top.intf File: apb_interface.sv Line: 36
# ** Info: VALID INPUTS
#    Time: 1685 ns Started: 1685 ns  Scope: top.intf File: apb_interface.sv Line: 47
# ** Info: PCLK is toggling
#    Time: 1685 ns Started: 1685 ns  Scope: top.intf File: apb_interface.sv Line: 36
# UVM_INFO apb_monitor.sv(73) @ 1695: uvm_test_top.env.pass_agt.pass_mon [apb_passive_monitor] | SEQUENCE MONITORED | READ_WRITE = x | apb_read_paddr = x | PSLVERR = 0 | 
# outputs received here @ 1695
# inputs received here @ 1695
# UVM_INFO apb_monitor.sv(31) @ 1695: uvm_test_top.env.act_agt.act_mon [apb_active_monitor] | SEQUENCE MONITORED | READ_WRITE = 1 | apb_write_paddr = 91 | apb_write_data = 118 | 
# UVM_INFO apb_scoreboard.sv(75) @ 1695: uvm_test_top.env.scb [apb_scoreboard]  TEST_PASSED | READ_DATA = 118 | DATA READ FROM = 91 | PSLVERR = 0
# TOTAL TRANSACTIONS : 54 | MATCHES = 16 | MISMATCHES = 8 |
# --------------------------------- SCOREBOARD ------------------------------------------
# 
# ** Info: VALID INPUTS
#    Time: 1695 ns Started: 1695 ns  Scope: top.intf File: apb_interface.sv Line: 47
# ** Info: PCLK is toggling
#    Time: 1695 ns Started: 1695 ns  Scope: top.intf File: apb_interface.sv Line: 36
# UVM_INFO apb_driver.sv(25) @ 1705: uvm_test_top.env.act_agt.drv [apb_driver] | SEQUENCE DRIVEN | READ_WRITE = 0 | apb_write_paddr = 92 | apb_write_data = 80 | 
# ** Info: VALID INPUTS
#    Time: 1705 ns Started: 1705 ns  Scope: top.intf File: apb_interface.sv Line: 47
# ** Info: PCLK is toggling
#    Time: 1705 ns Started: 1705 ns  Scope: top.intf File: apb_interface.sv Line: 36
# ** Info: VALID INPUTS
#    Time: 1715 ns Started: 1715 ns  Scope: top.intf File: apb_interface.sv Line: 47
# ** Info: PCLK is toggling
#    Time: 1715 ns Started: 1715 ns  Scope: top.intf File: apb_interface.sv Line: 36
# inputs received here @ 1725
# UVM_INFO apb_monitor.sv(31) @ 1725: uvm_test_top.env.act_agt.act_mon [apb_active_monitor] | SEQUENCE MONITORED | READ_WRITE = 0 | apb_write_paddr = 92 | apb_write_data = 80 | 
# UVM_INFO apb_monitor.sv(73) @ 1725: uvm_test_top.env.pass_agt.pass_mon [apb_passive_monitor] | SEQUENCE MONITORED | READ_WRITE = x | apb_read_paddr = x | PSLVERR = 0 | 
# outputs received here @ 1725
# DATA = 80, WRITTEN IN MEMORY ADDRESS = 92 
# TOTAL TRANSACTIONS : 55 | MATCHES = 16 | MISMATCHES = 8 |
# --------------------------------- SCOREBOARD ------------------------------------------
# 
# ** Info: VALID INPUTS
#    Time: 1725 ns Started: 1725 ns  Scope: top.intf File: apb_interface.sv Line: 47
# ** Info: PCLK is toggling
#    Time: 1725 ns Started: 1725 ns  Scope: top.intf File: apb_interface.sv Line: 36
# UVM_INFO apb_driver.sv(31) @ 1735: uvm_test_top.env.act_agt.drv [apb_driver] | SEQUENCE DRIVEN | READ_WRITE = 1 | apb_read_paddr = 92 |
# ** Info: VALID INPUTS
#    Time: 1735 ns Started: 1735 ns  Scope: top.intf File: apb_interface.sv Line: 47
# ** Info: PCLK is toggling
#    Time: 1735 ns Started: 1735 ns  Scope: top.intf File: apb_interface.sv Line: 36
# ** Info: VALID INPUTS
#    Time: 1745 ns Started: 1745 ns  Scope: top.intf File: apb_interface.sv Line: 47
# ** Info: PCLK is toggling
#    Time: 1745 ns Started: 1745 ns  Scope: top.intf File: apb_interface.sv Line: 36
# UVM_INFO apb_monitor.sv(73) @ 1755: uvm_test_top.env.pass_agt.pass_mon [apb_passive_monitor] | SEQUENCE MONITORED | READ_WRITE = x | apb_read_paddr = x | PSLVERR = 0 | 
# outputs received here @ 1755
# inputs received here @ 1755
# UVM_INFO apb_monitor.sv(31) @ 1755: uvm_test_top.env.act_agt.act_mon [apb_active_monitor] | SEQUENCE MONITORED | READ_WRITE = 1 | apb_write_paddr = 92 | apb_write_data = 80 | 
# UVM_INFO apb_scoreboard.sv(75) @ 1755: uvm_test_top.env.scb [apb_scoreboard]  TEST_PASSED | READ_DATA = 80 | DATA READ FROM = 92 | PSLVERR = 0
# TOTAL TRANSACTIONS : 56 | MATCHES = 17 | MISMATCHES = 8 |
# --------------------------------- SCOREBOARD ------------------------------------------
# 
# ** Info: VALID INPUTS
#    Time: 1755 ns Started: 1755 ns  Scope: top.intf File: apb_interface.sv Line: 47
# ** Info: PCLK is toggling
#    Time: 1755 ns Started: 1755 ns  Scope: top.intf File: apb_interface.sv Line: 36
# UVM_INFO apb_driver.sv(25) @ 1765: uvm_test_top.env.act_agt.drv [apb_driver] | SEQUENCE DRIVEN | READ_WRITE = 0 | apb_write_paddr = 65 | apb_write_data = 42 | 
# ** Info: VALID INPUTS
#    Time: 1765 ns Started: 1765 ns  Scope: top.intf File: apb_interface.sv Line: 47
# ** Info: PCLK is toggling
#    Time: 1765 ns Started: 1765 ns  Scope: top.intf File: apb_interface.sv Line: 36
# ** Info: VALID INPUTS
#    Time: 1775 ns Started: 1775 ns  Scope: top.intf File: apb_interface.sv Line: 47
# ** Info: PCLK is toggling
#    Time: 1775 ns Started: 1775 ns  Scope: top.intf File: apb_interface.sv Line: 36
# inputs received here @ 1785
# UVM_INFO apb_monitor.sv(31) @ 1785: uvm_test_top.env.act_agt.act_mon [apb_active_monitor] | SEQUENCE MONITORED | READ_WRITE = 0 | apb_write_paddr = 65 | apb_write_data = 42 | 
# UVM_INFO apb_monitor.sv(73) @ 1785: uvm_test_top.env.pass_agt.pass_mon [apb_passive_monitor] | SEQUENCE MONITORED | READ_WRITE = x | apb_read_paddr = x | PSLVERR = 0 | 
# outputs received here @ 1785
# DATA = 42, WRITTEN IN MEMORY ADDRESS = 65 
# TOTAL TRANSACTIONS : 57 | MATCHES = 17 | MISMATCHES = 8 |
# --------------------------------- SCOREBOARD ------------------------------------------
# 
# ** Info: VALID INPUTS
#    Time: 1785 ns Started: 1785 ns  Scope: top.intf File: apb_interface.sv Line: 47
# ** Info: PCLK is toggling
#    Time: 1785 ns Started: 1785 ns  Scope: top.intf File: apb_interface.sv Line: 36
# UVM_INFO apb_driver.sv(31) @ 1795: uvm_test_top.env.act_agt.drv [apb_driver] | SEQUENCE DRIVEN | READ_WRITE = 1 | apb_read_paddr = 65 |
# ** Info: VALID INPUTS
#    Time: 1795 ns Started: 1795 ns  Scope: top.intf File: apb_interface.sv Line: 47
# ** Info: PCLK is toggling
#    Time: 1795 ns Started: 1795 ns  Scope: top.intf File: apb_interface.sv Line: 36
# ** Info: VALID INPUTS
#    Time: 1805 ns Started: 1805 ns  Scope: top.intf File: apb_interface.sv Line: 47
# ** Info: PCLK is toggling
#    Time: 1805 ns Started: 1805 ns  Scope: top.intf File: apb_interface.sv Line: 36
# UVM_INFO apb_monitor.sv(73) @ 1815: uvm_test_top.env.pass_agt.pass_mon [apb_passive_monitor] | SEQUENCE MONITORED | READ_WRITE = x | apb_read_paddr = x | PSLVERR = 0 | 
# outputs received here @ 1815
# inputs received here @ 1815
# UVM_INFO apb_monitor.sv(31) @ 1815: uvm_test_top.env.act_agt.act_mon [apb_active_monitor] | SEQUENCE MONITORED | READ_WRITE = 1 | apb_write_paddr = 65 | apb_write_data = 42 | 
# UVM_INFO apb_scoreboard.sv(75) @ 1815: uvm_test_top.env.scb [apb_scoreboard]  TEST_PASSED | READ_DATA = 42 | DATA READ FROM = 65 | PSLVERR = 0
# TOTAL TRANSACTIONS : 58 | MATCHES = 18 | MISMATCHES = 8 |
# --------------------------------- SCOREBOARD ------------------------------------------
# 
# ** Info: VALID INPUTS
#    Time: 1815 ns Started: 1815 ns  Scope: top.intf File: apb_interface.sv Line: 47
# ** Info: PCLK is toggling
#    Time: 1815 ns Started: 1815 ns  Scope: top.intf File: apb_interface.sv Line: 36
# UVM_INFO apb_driver.sv(25) @ 1825: uvm_test_top.env.act_agt.drv [apb_driver] | SEQUENCE DRIVEN | READ_WRITE = 0 | apb_write_paddr = 432 | apb_write_data = 11 | 
# ** Info: VALID INPUTS
#    Time: 1825 ns Started: 1825 ns  Scope: top.intf File: apb_interface.sv Line: 47
# ** Info: PCLK is toggling
#    Time: 1825 ns Started: 1825 ns  Scope: top.intf File: apb_interface.sv Line: 36
# ** Info: VALID INPUTS
#    Time: 1835 ns Started: 1835 ns  Scope: top.intf File: apb_interface.sv Line: 47
# ** Info: PCLK is toggling
#    Time: 1835 ns Started: 1835 ns  Scope: top.intf File: apb_interface.sv Line: 36
# inputs received here @ 1845
# UVM_INFO apb_monitor.sv(31) @ 1845: uvm_test_top.env.act_agt.act_mon [apb_active_monitor] | SEQUENCE MONITORED | READ_WRITE = 0 | apb_write_paddr = 432 | apb_write_data = 11 | 
# UVM_INFO apb_monitor.sv(73) @ 1845: uvm_test_top.env.pass_agt.pass_mon [apb_passive_monitor] | SEQUENCE MONITORED | READ_WRITE = x | apb_read_paddr = x | PSLVERR = 0 | 
# outputs received here @ 1845
# DATA = 11, WRITTEN IN MEMORY ADDRESS = 432 
# TOTAL TRANSACTIONS : 59 | MATCHES = 18 | MISMATCHES = 8 |
# --------------------------------- SCOREBOARD ------------------------------------------
# 
# ** Info: VALID INPUTS
#    Time: 1845 ns Started: 1845 ns  Scope: top.intf File: apb_interface.sv Line: 47
# ** Info: PCLK is toggling
#    Time: 1845 ns Started: 1845 ns  Scope: top.intf File: apb_interface.sv Line: 36
# UVM_INFO apb_driver.sv(31) @ 1855: uvm_test_top.env.act_agt.drv [apb_driver] | SEQUENCE DRIVEN | READ_WRITE = 1 | apb_read_paddr = 432 |
# ** Info: VALID INPUTS
#    Time: 1855 ns Started: 1855 ns  Scope: top.intf File: apb_interface.sv Line: 47
# ** Info: PCLK is toggling
#    Time: 1855 ns Started: 1855 ns  Scope: top.intf File: apb_interface.sv Line: 36
# ** Info: VALID INPUTS
#    Time: 1865 ns Started: 1865 ns  Scope: top.intf File: apb_interface.sv Line: 47
# ** Info: PCLK is toggling
#    Time: 1865 ns Started: 1865 ns  Scope: top.intf File: apb_interface.sv Line: 36
# UVM_INFO apb_monitor.sv(73) @ 1875: uvm_test_top.env.pass_agt.pass_mon [apb_passive_monitor] | SEQUENCE MONITORED | READ_WRITE = x | apb_read_paddr = x | PSLVERR = 0 | 
# outputs received here @ 1875
# inputs received here @ 1875
# UVM_INFO apb_monitor.sv(31) @ 1875: uvm_test_top.env.act_agt.act_mon [apb_active_monitor] | SEQUENCE MONITORED | READ_WRITE = 1 | apb_write_paddr = 432 | apb_write_data = 11 | 
# UVM_INFO apb_scoreboard.sv(85) @ 1875: uvm_test_top.env.scb [apb_scoreboard]  TEST_FAILED  | READ_DATA = x | DATA READ FROM = 432 | PSLVERR = 0 
# TOTAL TRANSACTIONS : 60 | MATCHES = 18 | MISMATCHES = 9 |
# --------------------------------- SCOREBOARD ------------------------------------------
# 
# ** Info: VALID INPUTS
#    Time: 1875 ns Started: 1875 ns  Scope: top.intf File: apb_interface.sv Line: 47
# ** Info: PCLK is toggling
#    Time: 1875 ns Started: 1875 ns  Scope: top.intf File: apb_interface.sv Line: 36
# UVM_INFO apb_driver.sv(25) @ 1885: uvm_test_top.env.act_agt.drv [apb_driver] | SEQUENCE DRIVEN | READ_WRITE = 0 | apb_write_paddr = 370 | apb_write_data = 163 | 
# ** Info: VALID INPUTS
#    Time: 1885 ns Started: 1885 ns  Scope: top.intf File: apb_interface.sv Line: 47
# ** Info: PCLK is toggling
#    Time: 1885 ns Started: 1885 ns  Scope: top.intf File: apb_interface.sv Line: 36
# ** Info: VALID INPUTS
#    Time: 1895 ns Started: 1895 ns  Scope: top.intf File: apb_interface.sv Line: 47
# ** Info: PCLK is toggling
#    Time: 1895 ns Started: 1895 ns  Scope: top.intf File: apb_interface.sv Line: 36
# inputs received here @ 1905
# UVM_INFO apb_monitor.sv(31) @ 1905: uvm_test_top.env.act_agt.act_mon [apb_active_monitor] | SEQUENCE MONITORED | READ_WRITE = 0 | apb_write_paddr = 370 | apb_write_data = 163 | 
# UVM_INFO apb_monitor.sv(73) @ 1905: uvm_test_top.env.pass_agt.pass_mon [apb_passive_monitor] | SEQUENCE MONITORED | READ_WRITE = x | apb_read_paddr = x | PSLVERR = 0 | 
